! FREQ.GHZ	S11RE	S11IM	S21RE	S21IM	S12RE	S12IM	S22RE	S22IM
5.48	1.000000000 	0.000000000 	0.228780943 	0.038461581	1.000000000 	0.000000000 	1.000000000 	0.000000000 
5.480002667	1.000000000 	0.000000000 	0.229011033 	0.037578551	1.000000000 	0.000000000 	1.000000000 	0.000000000 
5.480005333	1.000000000 	0.000000000 	0.229018081 	0.037256812	1.000000000 	0.000000000 	1.000000000 	0.000000000 
5.480008	1.000000000 	0.000000000 	0.229115934 	0.036739966	1.000000000 	0.000000000 	1.000000000 	0.000000000 
5.480010667	1.000000000 	0.000000000 	0.229181680 	0.036573276	1.000000000 	0.000000000 	1.000000000 	0.000000000 
5.480013333	1.000000000 	0.000000000 	0.229002579 	0.03755542	1.000000000 	0.000000000 	1.000000000 	0.000000000 
5.480016	1.000000000 	0.000000000 	0.229119771 	0.03682574	1.000000000 	0.000000000 	1.000000000 	0.000000000 
5.480018667	1.000000000 	0.000000000 	0.228978701 	0.037187515	1.000000000 	0.000000000 	1.000000000 	0.000000000 
5.480021333	1.000000000 	0.000000000 	0.229148939 	0.036628639	1.000000000 	0.000000000 	1.000000000 	0.000000000 
5.480024	1.000000000 	0.000000000 	0.229088933 	0.036077893	1.000000000 	0.000000000 	1.000000000 	0.000000000 
5.480026667	1.000000000 	0.000000000 	0.228936650 	0.037522229	1.000000000 	0.000000000 	1.000000000 	0.000000000 
5.480029333	1.000000000 	0.000000000 	0.229037834 	0.037591179	1.000000000 	0.000000000 	1.000000000 	0.000000000 
5.480032	1.000000000 	0.000000000 	0.229029976 	0.037011307	1.000000000 	0.000000000 	1.000000000 	0.000000000 
5.480034667	1.000000000 	0.000000000 	0.229134046 	0.037244205	1.000000000 	0.000000000 	1.000000000 	0.000000000 
5.480037333	1.000000000 	0.000000000 	0.229002581 	0.037181815	1.000000000 	0.000000000 	1.000000000 	0.000000000 
5.48004	1.000000000 	0.000000000 	0.229220892 	0.036225452	1.000000000 	0.000000000 	1.000000000 	0.000000000 
5.480042667	1.000000000 	0.000000000 	0.229071733 	0.036664501	1.000000000 	0.000000000 	1.000000000 	0.000000000 
5.480045333	1.000000000 	0.000000000 	0.228989952 	0.037299264	1.000000000 	0.000000000 	1.000000000 	0.000000000 
5.480048	1.000000000 	0.000000000 	0.229018010 	0.037049788	1.000000000 	0.000000000 	1.000000000 	0.000000000 
5.480050667	1.000000000 	0.000000000 	0.229142263 	0.036825146	1.000000000 	0.000000000 	1.000000000 	0.000000000 
5.480053333	1.000000000 	0.000000000 	0.229141538 	0.036123652	1.000000000 	0.000000000 	1.000000000 	0.000000000 
5.480056	1.000000000 	0.000000000 	0.229050274 	0.037048783	1.000000000 	0.000000000 	1.000000000 	0.000000000 
5.480058667	1.000000000 	0.000000000 	0.228862444 	0.037668375	1.000000000 	0.000000000 	1.000000000 	0.000000000 
5.480061333	1.000000000 	0.000000000 	0.229083833 	0.037209689	1.000000000 	0.000000000 	1.000000000 	0.000000000 
5.480064	1.000000000 	0.000000000 	0.228900657 	0.037890176	1.000000000 	0.000000000 	1.000000000 	0.000000000 
5.480066667	1.000000000 	0.000000000 	0.229139473 	0.036674048	1.000000000 	0.000000000 	1.000000000 	0.000000000 
5.480069333	1.000000000 	0.000000000 	0.229000626 	0.037021715	1.000000000 	0.000000000 	1.000000000 	0.000000000 
5.480072	1.000000000 	0.000000000 	0.228945117 	0.037514491	1.000000000 	0.000000000 	1.000000000 	0.000000000 
5.480074667	1.000000000 	0.000000000 	0.229166833 	0.036278374	1.000000000 	0.000000000 	1.000000000 	0.000000000 
5.480077333	1.000000000 	0.000000000 	0.229133836 	0.036824137	1.000000000 	0.000000000 	1.000000000 	0.000000000 
5.48008	1.000000000 	0.000000000 	0.229049322 	0.037032817	1.000000000 	0.000000000 	1.000000000 	0.000000000 
5.480082667	1.000000000 	0.000000000 	0.228961878 	0.037469318	1.000000000 	0.000000000 	1.000000000 	0.000000000 
5.480085333	1.000000000 	0.000000000 	0.229053518 	0.037247992	1.000000000 	0.000000000 	1.000000000 	0.000000000 
5.480088	1.000000000 	0.000000000 	0.229073438 	0.037030809	1.000000000 	0.000000000 	1.000000000 	0.000000000 
5.480090667	1.000000000 	0.000000000 	0.228990626 	0.036697018	1.000000000 	0.000000000 	1.000000000 	0.000000000 
5.480093333	1.000000000 	0.000000000 	0.229098057 	0.037411136	1.000000000 	0.000000000 	1.000000000 	0.000000000 
5.480096	1.000000000 	0.000000000 	0.229021029 	0.037345245	1.000000000 	0.000000000 	1.000000000 	0.000000000 
5.480098667	1.000000000 	0.000000000 	0.229199550 	0.035910434	1.000000000 	0.000000000 	1.000000000 	0.000000000 
5.480101333	1.000000000 	0.000000000 	0.229104975 	0.03655554	1.000000000 	0.000000000 	1.000000000 	0.000000000 
5.480104	1.000000000 	0.000000000 	0.229016369 	0.037188778	1.000000000 	0.000000000 	1.000000000 	0.000000000 
5.480106667	1.000000000 	0.000000000 	0.229037706 	0.037074751	1.000000000 	0.000000000 	1.000000000 	0.000000000 
5.480109333	1.000000000 	0.000000000 	0.229064281 	0.036907274	1.000000000 	0.000000000 	1.000000000 	0.000000000 
5.480112	1.000000000 	0.000000000 	0.228983959 	0.03728082	1.000000000 	0.000000000 	1.000000000 	0.000000000 
5.480114667	1.000000000 	0.000000000 	0.229014140 	0.037142416	1.000000000 	0.000000000 	1.000000000 	0.000000000 
5.480117333	1.000000000 	0.000000000 	0.229147402 	0.036738759	1.000000000 	0.000000000 	1.000000000 	0.000000000 
5.48012	1.000000000 	0.000000000 	0.229012638 	0.037197016	1.000000000 	0.000000000 	1.000000000 	0.000000000 
5.480122667	1.000000000 	0.000000000 	0.228937184 	0.037251298	1.000000000 	0.000000000 	1.000000000 	0.000000000 
5.480125333	1.000000000 	0.000000000 	0.229050487 	0.036659038	1.000000000 	0.000000000 	1.000000000 	0.000000000 
5.480128	1.000000000 	0.000000000 	0.228989638 	0.036644267	1.000000000 	0.000000000 	1.000000000 	0.000000000 
5.480130667	1.000000000 	0.000000000 	0.228888924 	0.037319157	1.000000000 	0.000000000 	1.000000000 	0.000000000 
5.480133333	1.000000000 	0.000000000 	0.229031593 	0.037284818	1.000000000 	0.000000000 	1.000000000 	0.000000000 
5.480136	1.000000000 	0.000000000 	0.229080046 	0.036768239	1.000000000 	0.000000000 	1.000000000 	0.000000000 
5.480138667	1.000000000 	0.000000000 	0.229096506 	0.036766499	1.000000000 	0.000000000 	1.000000000 	0.000000000 
5.480141333	1.000000000 	0.000000000 	0.228962066 	0.037424646	1.000000000 	0.000000000 	1.000000000 	0.000000000 
5.480144	1.000000000 	0.000000000 	0.229062031 	0.036951846	1.000000000 	0.000000000 	1.000000000 	0.000000000 
5.480146667	1.000000000 	0.000000000 	0.229072204 	0.036765284	1.000000000 	0.000000000 	1.000000000 	0.000000000 
5.480149333	1.000000000 	0.000000000 	0.228954126 	0.037059713	1.000000000 	0.000000000 	1.000000000 	0.000000000 
5.480152	1.000000000 	0.000000000 	0.229001349 	0.036732028	1.000000000 	0.000000000 	1.000000000 	0.000000000 
5.480154667	1.000000000 	0.000000000 	0.228912359 	0.037227609	1.000000000 	0.000000000 	1.000000000 	0.000000000 
5.480157333	1.000000000 	0.000000000 	0.228939587 	0.037240428	1.000000000 	0.000000000 	1.000000000 	0.000000000 
5.48016	1.000000000 	0.000000000 	0.228956005 	0.036840757	1.000000000 	0.000000000 	1.000000000 	0.000000000 
5.480162667	1.000000000 	0.000000000 	0.229087327 	0.036487421	1.000000000 	0.000000000 	1.000000000 	0.000000000 
5.480165333	1.000000000 	0.000000000 	0.229036982 	0.036984074	1.000000000 	0.000000000 	1.000000000 	0.000000000 
5.480168	1.000000000 	0.000000000 	0.229093017 	0.036795099	1.000000000 	0.000000000 	1.000000000 	0.000000000 
5.480170667	1.000000000 	0.000000000 	0.228972031 	0.03708396	1.000000000 	0.000000000 	1.000000000 	0.000000000 
5.480173333	1.000000000 	0.000000000 	0.228948445 	0.037428863	1.000000000 	0.000000000 	1.000000000 	0.000000000 
5.480176	1.000000000 	0.000000000 	0.229107619 	0.036458701	1.000000000 	0.000000000 	1.000000000 	0.000000000 
5.480178667	1.000000000 	0.000000000 	0.228960558 	0.037083809	1.000000000 	0.000000000 	1.000000000 	0.000000000 
5.480181333	1.000000000 	0.000000000 	0.228897695 	0.037553421	1.000000000 	0.000000000 	1.000000000 	0.000000000 
5.480184	1.000000000 	0.000000000 	0.229021499 	0.036803294	1.000000000 	0.000000000 	1.000000000 	0.000000000 
5.480186667	1.000000000 	0.000000000 	0.229069161 	0.036446152	1.000000000 	0.000000000 	1.000000000 	0.000000000 
5.480189333	1.000000000 	0.000000000 	0.228981064 	0.037332344	1.000000000 	0.000000000 	1.000000000 	0.000000000 
5.480192	1.000000000 	0.000000000 	0.229156880 	0.03682221	1.000000000 	0.000000000 	1.000000000 	0.000000000 
5.480194667	1.000000000 	0.000000000 	0.229023047 	0.036858347	1.000000000 	0.000000000 	1.000000000 	0.000000000 
5.480197333	1.000000000 	0.000000000 	0.228956345 	0.037192643	1.000000000 	0.000000000 	1.000000000 	0.000000000 
5.4802	1.000000000 	0.000000000 	0.229077058 	0.036572716	1.000000000 	0.000000000 	1.000000000 	0.000000000 
5.480202667	1.000000000 	0.000000000 	0.228916533 	0.037291751	1.000000000 	0.000000000 	1.000000000 	0.000000000 
5.480205333	1.000000000 	0.000000000 	0.229118216 	0.035987123	1.000000000 	0.000000000 	1.000000000 	0.000000000 
5.480208	1.000000000 	0.000000000 	0.229216378 	0.036241744	1.000000000 	0.000000000 	1.000000000 	0.000000000 
5.480210667	1.000000000 	0.000000000 	0.228880524 	0.037592376	1.000000000 	0.000000000 	1.000000000 	0.000000000 
5.480213333	1.000000000 	0.000000000 	0.228944965 	0.037244601	1.000000000 	0.000000000 	1.000000000 	0.000000000 
5.480216	1.000000000 	0.000000000 	0.229104578 	0.037018145	1.000000000 	0.000000000 	1.000000000 	0.000000000 
5.480218667	1.000000000 	0.000000000 	0.228974032 	0.037532003	1.000000000 	0.000000000 	1.000000000 	0.000000000 
5.480221333	1.000000000 	0.000000000 	0.228891008 	0.037670029	1.000000000 	0.000000000 	1.000000000 	0.000000000 
5.480224	1.000000000 	0.000000000 	0.229062927 	0.036625099	1.000000000 	0.000000000 	1.000000000 	0.000000000 
5.480226667	1.000000000 	0.000000000 	0.229083949 	0.036665392	1.000000000 	0.000000000 	1.000000000 	0.000000000 
5.480229333	1.000000000 	0.000000000 	0.229027230 	0.036982112	1.000000000 	0.000000000 	1.000000000 	0.000000000 
5.480232	1.000000000 	0.000000000 	0.229077786 	0.036711242	1.000000000 	0.000000000 	1.000000000 	0.000000000 
5.480234667	1.000000000 	0.000000000 	0.228989368 	0.036770182	1.000000000 	0.000000000 	1.000000000 	0.000000000 
5.480237333	1.000000000 	0.000000000 	0.228932461 	0.036965917	1.000000000 	0.000000000 	1.000000000 	0.000000000 
5.48024	1.000000000 	0.000000000 	0.228883909 	0.036744737	1.000000000 	0.000000000 	1.000000000 	0.000000000 
5.480242667	1.000000000 	0.000000000 	0.228846667 	0.037366332	1.000000000 	0.000000000 	1.000000000 	0.000000000 
5.480245333	1.000000000 	0.000000000 	0.228943395 	0.037068477	1.000000000 	0.000000000 	1.000000000 	0.000000000 
5.480248	1.000000000 	0.000000000 	0.228989520 	0.036327873	1.000000000 	0.000000000 	1.000000000 	0.000000000 
5.480250667	1.000000000 	0.000000000 	0.228872060 	0.036974459	1.000000000 	0.000000000 	1.000000000 	0.000000000 
5.480253333	1.000000000 	0.000000000 	0.228800026 	0.037341048	1.000000000 	0.000000000 	1.000000000 	0.000000000 
5.480256	1.000000000 	0.000000000 	0.229030222 	0.036658978	1.000000000 	0.000000000 	1.000000000 	0.000000000 
5.480258667	1.000000000 	0.000000000 	0.228843067 	0.037007689	1.000000000 	0.000000000 	1.000000000 	0.000000000 
5.480261333	1.000000000 	0.000000000 	0.228931181 	0.037337712	1.000000000 	0.000000000 	1.000000000 	0.000000000 
5.480264	1.000000000 	0.000000000 	0.228990522 	0.03655794	1.000000000 	0.000000000 	1.000000000 	0.000000000 
5.480266667	1.000000000 	0.000000000 	0.228876033 	0.037056337	1.000000000 	0.000000000 	1.000000000 	0.000000000 
5.480269333	1.000000000 	0.000000000 	0.228857689 	0.037188622	1.000000000 	0.000000000 	1.000000000 	0.000000000 
5.480272	1.000000000 	0.000000000 	0.228899550 	0.036860016	1.000000000 	0.000000000 	1.000000000 	0.000000000 
5.480274667	1.000000000 	0.000000000 	0.228983063 	0.036935935	1.000000000 	0.000000000 	1.000000000 	0.000000000 
5.480277333	1.000000000 	0.000000000 	0.229005452 	0.036394982	1.000000000 	0.000000000 	1.000000000 	0.000000000 
5.48028	1.000000000 	0.000000000 	0.228856835 	0.037055545	1.000000000 	0.000000000 	1.000000000 	0.000000000 
5.480282667	1.000000000 	0.000000000 	0.228857765 	0.037263072	1.000000000 	0.000000000 	1.000000000 	0.000000000 
5.480285333	1.000000000 	0.000000000 	0.229051350 	0.036031963	1.000000000 	0.000000000 	1.000000000 	0.000000000 
5.480288	1.000000000 	0.000000000 	0.228965041 	0.036997703	1.000000000 	0.000000000 	1.000000000 	0.000000000 
5.480290667	1.000000000 	0.000000000 	0.228865027 	0.037291226	1.000000000 	0.000000000 	1.000000000 	0.000000000 
5.480293333	1.000000000 	0.000000000 	0.228925481 	0.03670956	1.000000000 	0.000000000 	1.000000000 	0.000000000 
5.480296	1.000000000 	0.000000000 	0.228983286 	0.03673402	1.000000000 	0.000000000 	1.000000000 	0.000000000 
5.480298667	1.000000000 	0.000000000 	0.228917012 	0.036559147	1.000000000 	0.000000000 	1.000000000 	0.000000000 
5.480301333	1.000000000 	0.000000000 	0.228767794 	0.037089619	1.000000000 	0.000000000 	1.000000000 	0.000000000 
5.480304	1.000000000 	0.000000000 	0.228788064 	0.03714865	1.000000000 	0.000000000 	1.000000000 	0.000000000 
5.480306667	1.000000000 	0.000000000 	0.228887749 	0.03681988	1.000000000 	0.000000000 	1.000000000 	0.000000000 
5.480309333	1.000000000 	0.000000000 	0.228791434 	0.037361795	1.000000000 	0.000000000 	1.000000000 	0.000000000 
5.480312	1.000000000 	0.000000000 	0.228839328 	0.037336296	1.000000000 	0.000000000 	1.000000000 	0.000000000 
5.480314667	1.000000000 	0.000000000 	0.228929127 	0.036295108	1.000000000 	0.000000000 	1.000000000 	0.000000000 
5.480317333	1.000000000 	0.000000000 	0.228952533 	0.036864749	1.000000000 	0.000000000 	1.000000000 	0.000000000 
5.48032	1.000000000 	0.000000000 	0.228890492 	0.036751434	1.000000000 	0.000000000 	1.000000000 	0.000000000 
5.480322667	1.000000000 	0.000000000 	0.228906059 	0.036532942	1.000000000 	0.000000000 	1.000000000 	0.000000000 
5.480325333	1.000000000 	0.000000000 	0.228729878 	0.037497512	1.000000000 	0.000000000 	1.000000000 	0.000000000 
5.480328	1.000000000 	0.000000000 	0.228853527 	0.036763583	1.000000000 	0.000000000 	1.000000000 	0.000000000 
5.480330667	1.000000000 	0.000000000 	0.228937168 	0.036492915	1.000000000 	0.000000000 	1.000000000 	0.000000000 
5.480333333	1.000000000 	0.000000000 	0.228764959 	0.037243874	1.000000000 	0.000000000 	1.000000000 	0.000000000 
5.480336	1.000000000 	0.000000000 	0.228925211 	0.037059876	1.000000000 	0.000000000 	1.000000000 	0.000000000 
5.480338667	1.000000000 	0.000000000 	0.228980501 	0.036080561	1.000000000 	0.000000000 	1.000000000 	0.000000000 
5.480341333	1.000000000 	0.000000000 	0.228851870 	0.036630141	1.000000000 	0.000000000 	1.000000000 	0.000000000 
5.480344	1.000000000 	0.000000000 	0.228665379 	0.037294098	1.000000000 	0.000000000 	1.000000000 	0.000000000 
5.480346667	1.000000000 	0.000000000 	0.228897370 	0.036797587	1.000000000 	0.000000000 	1.000000000 	0.000000000 
5.480349333	1.000000000 	0.000000000 	0.228937756 	0.036650912	1.000000000 	0.000000000 	1.000000000 	0.000000000 
5.480352	1.000000000 	0.000000000 	0.228957158 	0.036396552	1.000000000 	0.000000000 	1.000000000 	0.000000000 
5.480354667	1.000000000 	0.000000000 	0.228810966 	0.036916944	1.000000000 	0.000000000 	1.000000000 	0.000000000 
5.480357333	1.000000000 	0.000000000 	0.228688213 	0.037444611	1.000000000 	0.000000000 	1.000000000 	0.000000000 
5.48036	1.000000000 	0.000000000 	0.228754045 	0.036977722	1.000000000 	0.000000000 	1.000000000 	0.000000000 
5.480362667	1.000000000 	0.000000000 	0.228893108 	0.0366526	1.000000000 	0.000000000 	1.000000000 	0.000000000 
5.480365333	1.000000000 	0.000000000 	0.228833491 	0.036904812	1.000000000 	0.000000000 	1.000000000 	0.000000000 
5.480368	1.000000000 	0.000000000 	0.228754884 	0.036852233	1.000000000 	0.000000000 	1.000000000 	0.000000000 
5.480370667	1.000000000 	0.000000000 	0.228831409 	0.037080182	1.000000000 	0.000000000 	1.000000000 	0.000000000 
5.480373333	1.000000000 	0.000000000 	0.228674617 	0.037286886	1.000000000 	0.000000000 	1.000000000 	0.000000000 
5.480376	1.000000000 	0.000000000 	0.228825672 	0.036535475	1.000000000 	0.000000000 	1.000000000 	0.000000000 
5.480378667	1.000000000 	0.000000000 	0.228952654 	0.036445112	1.000000000 	0.000000000 	1.000000000 	0.000000000 
5.480381333	1.000000000 	0.000000000 	0.228784866 	0.036939138	1.000000000 	0.000000000 	1.000000000 	0.000000000 
5.480384	1.000000000 	0.000000000 	0.228742471 	0.037131055	1.000000000 	0.000000000 	1.000000000 	0.000000000 
5.480386667	1.000000000 	0.000000000 	0.228854054 	0.036665553	1.000000000 	0.000000000 	1.000000000 	0.000000000 
5.480389333	1.000000000 	0.000000000 	0.228819790 	0.036667604	1.000000000 	0.000000000 	1.000000000 	0.000000000 
5.480392	1.000000000 	0.000000000 	0.228721848 	0.037149487	1.000000000 	0.000000000 	1.000000000 	0.000000000 
5.480394667	1.000000000 	0.000000000 	0.228754081 	0.036831093	1.000000000 	0.000000000 	1.000000000 	0.000000000 
5.480397333	1.000000000 	0.000000000 	0.228933020 	0.036133425	1.000000000 	0.000000000 	1.000000000 	0.000000000 
5.4804	1.000000000 	0.000000000 	0.228743043 	0.036599016	1.000000000 	0.000000000 	1.000000000 	0.000000000 
5.480402667	1.000000000 	0.000000000 	0.228631847 	0.037769668	1.000000000 	0.000000000 	1.000000000 	0.000000000 
5.480405333	1.000000000 	0.000000000 	0.228696107 	0.036901037	1.000000000 	0.000000000 	1.000000000 	0.000000000 
5.480408	1.000000000 	0.000000000 	0.228827848 	0.036148183	1.000000000 	0.000000000 	1.000000000 	0.000000000 
5.480410667	1.000000000 	0.000000000 	0.228828845 	0.036532556	1.000000000 	0.000000000 	1.000000000 	0.000000000 
5.480413333	1.000000000 	0.000000000 	0.228725207 	0.036519195	1.000000000 	0.000000000 	1.000000000 	0.000000000 
5.480416	1.000000000 	0.000000000 	0.228680337 	0.037248204	1.000000000 	0.000000000 	1.000000000 	0.000000000 
5.480418667	1.000000000 	0.000000000 	0.228746247 	0.037045395	1.000000000 	0.000000000 	1.000000000 	0.000000000 
5.480421333	1.000000000 	0.000000000 	0.228733209 	0.036627227	1.000000000 	0.000000000 	1.000000000 	0.000000000 
5.480424	1.000000000 	0.000000000 	0.228836928 	0.036527311	1.000000000 	0.000000000 	1.000000000 	0.000000000 
5.480426667	1.000000000 	0.000000000 	0.228807293 	0.036227214	1.000000000 	0.000000000 	1.000000000 	0.000000000 
5.480429333	1.000000000 	0.000000000 	0.228635764 	0.037288364	1.000000000 	0.000000000 	1.000000000 	0.000000000 
5.480432	1.000000000 	0.000000000 	0.228583296 	0.037456274	1.000000000 	0.000000000 	1.000000000 	0.000000000 
5.480434667	1.000000000 	0.000000000 	0.228740069 	0.036536958	1.000000000 	0.000000000 	1.000000000 	0.000000000 
5.480437333	1.000000000 	0.000000000 	0.228761887 	0.036433169	1.000000000 	0.000000000 	1.000000000 	0.000000000 
5.48044	1.000000000 	0.000000000 	0.228658525 	0.036825825	1.000000000 	0.000000000 	1.000000000 	0.000000000 
5.480442667	1.000000000 	0.000000000 	0.228575216 	0.03698325	1.000000000 	0.000000000 	1.000000000 	0.000000000 
5.480445333	1.000000000 	0.000000000 	0.228667757 	0.036289489	1.000000000 	0.000000000 	1.000000000 	0.000000000 
5.480448	1.000000000 	0.000000000 	0.228627598 	0.036577247	1.000000000 	0.000000000 	1.000000000 	0.000000000 
5.480450667	1.000000000 	0.000000000 	0.228538916 	0.037169157	1.000000000 	0.000000000 	1.000000000 	0.000000000 
5.480453333	1.000000000 	0.000000000 	0.228595924 	0.036701268	1.000000000 	0.000000000 	1.000000000 	0.000000000 
5.480456	1.000000000 	0.000000000 	0.228631064 	0.036395738	1.000000000 	0.000000000 	1.000000000 	0.000000000 
5.480458667	1.000000000 	0.000000000 	0.228517723 	0.036588249	1.000000000 	0.000000000 	1.000000000 	0.000000000 
5.480461333	1.000000000 	0.000000000 	0.228568755 	0.036374061	1.000000000 	0.000000000 	1.000000000 	0.000000000 
5.480464	1.000000000 	0.000000000 	0.228560517 	0.036659436	1.000000000 	0.000000000 	1.000000000 	0.000000000 
