! FREQ.GHZ	S11RE	S11IM	S21RE	S21IM	S12RE	S12IM	S22RE	S22IM
5.983	1.000000000 	0.000000000 	0.235010699	0.091456742	1.000000000 	0.000000000 	1.000000000 	0.000000000 
5.9830025	1.000000000 	0.000000000 	0.240970034	0.070225083	1.000000000 	0.000000000 	1.000000000 	0.000000000 
5.983005	1.000000000 	0.000000000 	0.245152176	0.050069151	1.000000000 	0.000000000 	1.000000000 	0.000000000 
5.9830075	1.000000000 	0.000000000 	0.245312937	0.053597371	1.000000000 	0.000000000 	1.000000000 	0.000000000 
5.98301	1.000000000 	0.000000000 	0.242399111	0.071865085	1.000000000 	0.000000000 	1.000000000 	0.000000000 
5.9830125	1.000000000 	0.000000000 	0.242920124	0.063655964	1.000000000 	0.000000000 	1.000000000 	0.000000000 
5.983015	1.000000000 	0.000000000 	0.243679979	0.054702634	1.000000000 	0.000000000 	1.000000000 	0.000000000 
5.9830175	1.000000000 	0.000000000 	0.241411328	0.067563299	1.000000000 	0.000000000 	1.000000000 	0.000000000 
5.98302	1.000000000 	0.000000000 	0.244443423	0.056530084	1.000000000 	0.000000000 	1.000000000 	0.000000000 
5.9830225	1.000000000 	0.000000000 	0.24718525	0.039890891	1.000000000 	0.000000000 	1.000000000 	0.000000000 
5.983025	1.000000000 	0.000000000 	0.247063737	0.04394045	1.000000000 	0.000000000 	1.000000000 	0.000000000 
5.9830275	1.000000000 	0.000000000 	0.241325086	0.071827019	1.000000000 	0.000000000 	1.000000000 	0.000000000 
5.98303	1.000000000 	0.000000000 	0.243723051	0.060836186	1.000000000 	0.000000000 	1.000000000 	0.000000000 
5.9830325	1.000000000 	0.000000000 	0.248446488	0.046400414	1.000000000 	0.000000000 	1.000000000 	0.000000000 
5.983035	1.000000000 	0.000000000 	0.236776404	0.080625823	1.000000000 	0.000000000 	1.000000000 	0.000000000 
5.9830375	1.000000000 	0.000000000 	0.23816832	0.073779968	1.000000000 	0.000000000 	1.000000000 	0.000000000 
5.98304	1.000000000 	0.000000000 	0.243227329	0.067369132	1.000000000 	0.000000000 	1.000000000 	0.000000000 
5.9830425	1.000000000 	0.000000000 	0.245530167	0.049395837	1.000000000 	0.000000000 	1.000000000 	0.000000000 
5.983045	1.000000000 	0.000000000 	0.248101265	0.041833129	1.000000000 	0.000000000 	1.000000000 	0.000000000 
5.9830475	1.000000000 	0.000000000 	0.245521257	0.052905842	1.000000000 	0.000000000 	1.000000000 	0.000000000 
5.98305	1.000000000 	0.000000000 	0.245988496	0.040328482	1.000000000 	0.000000000 	1.000000000 	0.000000000 
5.9830525	1.000000000 	0.000000000 	0.243991928	0.053571156	1.000000000 	0.000000000 	1.000000000 	0.000000000 
5.983055	1.000000000 	0.000000000 	0.244576824	0.056189829	1.000000000 	0.000000000 	1.000000000 	0.000000000 
5.9830575	1.000000000 	0.000000000 	0.246910401	0.049536367	1.000000000 	0.000000000 	1.000000000 	0.000000000 
5.98306	1.000000000 	0.000000000 	0.23787566	0.077598718	1.000000000 	0.000000000 	1.000000000 	0.000000000 
5.9830625	1.000000000 	0.000000000 	0.235532496	0.081832473	1.000000000 	0.000000000 	1.000000000 	0.000000000 
5.983065	1.000000000 	0.000000000 	0.246701905	0.047473886	1.000000000 	0.000000000 	1.000000000 	0.000000000 
5.9830675	1.000000000 	0.000000000 	0.24733912	0.041227553	1.000000000 	0.000000000 	1.000000000 	0.000000000 
5.98307	1.000000000 	0.000000000 	0.24531285	0.054839898	1.000000000 	0.000000000 	1.000000000 	0.000000000 
5.9830725	1.000000000 	0.000000000 	0.242794805	0.054514143	1.000000000 	0.000000000 	1.000000000 	0.000000000 
5.983075	1.000000000 	0.000000000 	0.241407229	0.062660524	1.000000000 	0.000000000 	1.000000000 	0.000000000 
5.9830775	1.000000000 	0.000000000 	0.245659304	0.060992536	1.000000000 	0.000000000 	1.000000000 	0.000000000 
5.98308	1.000000000 	0.000000000 	0.247840303	0.050226384	1.000000000 	0.000000000 	1.000000000 	0.000000000 
5.9830825	1.000000000 	0.000000000 	0.245124781	0.061145275	1.000000000 	0.000000000 	1.000000000 	0.000000000 
5.983085	1.000000000 	0.000000000 	0.24657481	0.048761838	1.000000000 	0.000000000 	1.000000000 	0.000000000 
5.9830875	1.000000000 	0.000000000 	0.243876549	0.051373445	1.000000000 	0.000000000 	1.000000000 	0.000000000 
5.98309	1.000000000 	0.000000000 	0.244477526	0.059705782	1.000000000 	0.000000000 	1.000000000 	0.000000000 
5.9830925	1.000000000 	0.000000000 	0.245369755	0.057207801	1.000000000 	0.000000000 	1.000000000 	0.000000000 
5.983095	1.000000000 	0.000000000 	0.246005691	0.043893637	1.000000000 	0.000000000 	1.000000000 	0.000000000 
5.9830975	1.000000000 	0.000000000 	0.244825758	0.061155108	1.000000000 	0.000000000 	1.000000000 	0.000000000 
5.9831	1.000000000 	0.000000000 	0.238840145	0.069476991	1.000000000 	0.000000000 	1.000000000 	0.000000000 
5.9831025	1.000000000 	0.000000000 	0.246554479	0.049587535	1.000000000 	0.000000000 	1.000000000 	0.000000000 
5.983105	1.000000000 	0.000000000 	0.239165507	0.083971622	1.000000000 	0.000000000 	1.000000000 	0.000000000 
5.9831075	1.000000000 	0.000000000 	0.23857813	0.072760076	1.000000000 	0.000000000 	1.000000000 	0.000000000 
5.98311	1.000000000 	0.000000000 	0.249461543	0.021706154	1.000000000 	0.000000000 	1.000000000 	0.000000000 
5.9831125	1.000000000 	0.000000000 	0.251434213	0.029733912	1.000000000 	0.000000000 	1.000000000 	0.000000000 
5.983115	1.000000000 	0.000000000 	0.245079858	0.053511332	1.000000000 	0.000000000 	1.000000000 	0.000000000 
5.9831175	1.000000000 	0.000000000 	0.240398646	0.081484183	1.000000000 	0.000000000 	1.000000000 	0.000000000 
5.98312	1.000000000 	0.000000000 	0.237264191	0.079871182	1.000000000 	0.000000000 	1.000000000 	0.000000000 
5.9831225	1.000000000 	0.000000000 	0.246091791	0.046195632	1.000000000 	0.000000000 	1.000000000 	0.000000000 
5.983125	1.000000000 	0.000000000 	0.248193618	0.049159305	1.000000000 	0.000000000 	1.000000000 	0.000000000 
5.9831275	1.000000000 	0.000000000 	0.239252056	0.080430949	1.000000000 	0.000000000 	1.000000000 	0.000000000 
5.98313	1.000000000 	0.000000000 	0.247320667	0.047414538	1.000000000 	0.000000000 	1.000000000 	0.000000000 
5.9831325	1.000000000 	0.000000000 	0.25000133	0.020171211	1.000000000 	0.000000000 	1.000000000 	0.000000000 
5.983135	1.000000000 	0.000000000 	0.244577872	0.052305692	1.000000000 	0.000000000 	1.000000000 	0.000000000 
5.9831375	1.000000000 	0.000000000 	0.237330597	0.078528227	1.000000000 	0.000000000 	1.000000000 	0.000000000 
5.98314	1.000000000 	0.000000000 	0.246179433	0.049204389	1.000000000 	0.000000000 	1.000000000 	0.000000000 
5.9831425	1.000000000 	0.000000000 	0.24877657	0.042216639	1.000000000 	0.000000000 	1.000000000 	0.000000000 
5.983145	1.000000000 	0.000000000 	0.238924937	0.08103184	1.000000000 	0.000000000 	1.000000000 	0.000000000 
5.9831475	1.000000000 	0.000000000 	0.239672764	0.076098364	1.000000000 	0.000000000 	1.000000000 	0.000000000 
5.98315	1.000000000 	0.000000000 	0.242882439	0.059870273	1.000000000 	0.000000000 	1.000000000 	0.000000000 
5.9831525	1.000000000 	0.000000000 	0.245479514	0.054670229	1.000000000 	0.000000000 	1.000000000 	0.000000000 
5.983155	1.000000000 	0.000000000 	0.248013516	0.04560665	1.000000000 	0.000000000 	1.000000000 	0.000000000 
5.9831575	1.000000000 	0.000000000 	0.2463428	0.043122869	1.000000000 	0.000000000 	1.000000000 	0.000000000 
5.98316	1.000000000 	0.000000000 	0.244867666	0.050865833	1.000000000 	0.000000000 	1.000000000 	0.000000000 
5.9831625	1.000000000 	0.000000000 	0.240804372	0.062964505	1.000000000 	0.000000000 	1.000000000 	0.000000000 
5.983165	1.000000000 	0.000000000 	0.242419597	0.073167588	1.000000000 	0.000000000 	1.000000000 	0.000000000 
5.9831675	1.000000000 	0.000000000 	0.245546716	0.051523352	1.000000000 	0.000000000 	1.000000000 	0.000000000 
5.98317	1.000000000 	0.000000000 	0.247462892	0.049933005	1.000000000 	0.000000000 	1.000000000 	0.000000000 
5.9831725	1.000000000 	0.000000000 	0.239063191	0.081090438	1.000000000 	0.000000000 	1.000000000 	0.000000000 
5.983175	1.000000000 	0.000000000 	0.247279441	0.056436528	1.000000000 	0.000000000 	1.000000000 	0.000000000 
5.9831775	1.000000000 	0.000000000 	0.248630708	0.040737307	1.000000000 	0.000000000 	1.000000000 	0.000000000 
5.98318	1.000000000 	0.000000000 	0.243138046	0.05652215	1.000000000 	0.000000000 	1.000000000 	0.000000000 
5.9831825	1.000000000 	0.000000000 	0.245603328	0.059197258	1.000000000 	0.000000000 	1.000000000 	0.000000000 
5.983185	1.000000000 	0.000000000 	0.240259377	0.073617784	1.000000000 	0.000000000 	1.000000000 	0.000000000 
5.9831875	1.000000000 	0.000000000 	0.244178192	0.048418676	1.000000000 	0.000000000 	1.000000000 	0.000000000 
5.98319	1.000000000 	0.000000000 	0.246547537	0.052530879	1.000000000 	0.000000000 	1.000000000 	0.000000000 
5.9831925	1.000000000 	0.000000000 	0.24024626	0.07532587	1.000000000 	0.000000000 	1.000000000 	0.000000000 
5.983195	1.000000000 	0.000000000 	0.245150702	0.046936006	1.000000000 	0.000000000 	1.000000000 	0.000000000 
5.9831975	1.000000000 	0.000000000 	0.245032885	0.052077922	1.000000000 	0.000000000 	1.000000000 	0.000000000 
5.9832	1.000000000 	0.000000000 	0.23826389	0.077492081	1.000000000 	0.000000000 	1.000000000 	0.000000000 
5.9832025	1.000000000 	0.000000000 	0.247888579	0.046916223	1.000000000 	0.000000000 	1.000000000 	0.000000000 
5.983205	1.000000000 	0.000000000 	0.244805316	0.04367965	1.000000000 	0.000000000 	1.000000000 	0.000000000 
5.9832075	1.000000000 	0.000000000 	0.246316462	0.05416332	1.000000000 	0.000000000 	1.000000000 	0.000000000 
5.98321	1.000000000 	0.000000000 	0.246401545	0.050900376	1.000000000 	0.000000000 	1.000000000 	0.000000000 
5.9832125	1.000000000 	0.000000000 	0.24297439	0.065851251	1.000000000 	0.000000000 	1.000000000 	0.000000000 
5.983215	1.000000000 	0.000000000 	0.240779534	0.066954555	1.000000000 	0.000000000 	1.000000000 	0.000000000 
5.9832175	1.000000000 	0.000000000 	0.242803632	0.065090515	1.000000000 	0.000000000 	1.000000000 	0.000000000 
5.98322	1.000000000 	0.000000000 	0.247158942	0.044898037	1.000000000 	0.000000000 	1.000000000 	0.000000000 
5.9832225	1.000000000 	0.000000000 	0.248505	0.04417915	1.000000000 	0.000000000 	1.000000000 	0.000000000 
5.983225	1.000000000 	0.000000000 	0.243846003	0.065985283	1.000000000 	0.000000000 	1.000000000 	0.000000000 
5.9832275	1.000000000 	0.000000000 	0.243845492	0.060657995	1.000000000 	0.000000000 	1.000000000 	0.000000000 
5.98323	1.000000000 	0.000000000 	0.242700785	0.067962439	1.000000000 	0.000000000 	1.000000000 	0.000000000 
5.9832325	1.000000000 	0.000000000 	0.245234977	0.053599491	1.000000000 	0.000000000 	1.000000000 	0.000000000 
5.983235	1.000000000 	0.000000000 	0.248769267	0.038064076	1.000000000 	0.000000000 	1.000000000 	0.000000000 
5.9832375	1.000000000 	0.000000000 	0.249544046	0.031164779	1.000000000 	0.000000000 	1.000000000 	0.000000000 
5.98324	1.000000000 	0.000000000 	0.245549291	0.055589668	1.000000000 	0.000000000 	1.000000000 	0.000000000 
5.9832425	1.000000000 	0.000000000 	0.233738723	0.088167155	1.000000000 	0.000000000 	1.000000000 	0.000000000 
5.983245	1.000000000 	0.000000000 	0.244397318	0.064621821	1.000000000 	0.000000000 	1.000000000 	0.000000000 
5.9832475	1.000000000 	0.000000000 	0.247251372	0.027629267	1.000000000 	0.000000000 	1.000000000 	0.000000000 
5.98325	1.000000000 	0.000000000 	0.240666204	0.063945802	1.000000000 	0.000000000 	1.000000000 	0.000000000 
5.9832525	1.000000000 	0.000000000 	0.243282468	0.06316099	1.000000000 	0.000000000 	1.000000000 	0.000000000 
5.983255	1.000000000 	0.000000000 	0.247222731	0.055812427	1.000000000 	0.000000000 	1.000000000 	0.000000000 
5.9832575	1.000000000 	0.000000000 	0.241698305	0.07072733	1.000000000 	0.000000000 	1.000000000 	0.000000000 
5.98326	1.000000000 	0.000000000 	0.245686518	0.059424407	1.000000000 	0.000000000 	1.000000000 	0.000000000 
5.9832625	1.000000000 	0.000000000 	0.244452494	0.05194859	1.000000000 	0.000000000 	1.000000000 	0.000000000 
5.983265	1.000000000 	0.000000000 	0.244492304	0.06132647	1.000000000 	0.000000000 	1.000000000 	0.000000000 
5.9832675	1.000000000 	0.000000000 	0.238269518	0.081888846	1.000000000 	0.000000000 	1.000000000 	0.000000000 
5.98327	1.000000000 	0.000000000 	0.247730925	0.035414556	1.000000000 	0.000000000 	1.000000000 	0.000000000 
5.9832725	1.000000000 	0.000000000 	0.245209994	0.050929033	1.000000000 	0.000000000 	1.000000000 	0.000000000 
5.983275	1.000000000 	0.000000000 	0.247930603	0.043261627	1.000000000 	0.000000000 	1.000000000 	0.000000000 
5.9832775	1.000000000 	0.000000000 	0.249976256	0.025325692	1.000000000 	0.000000000 	1.000000000 	0.000000000 
5.98328	1.000000000 	0.000000000 	0.240631382	0.069750557	1.000000000 	0.000000000 	1.000000000 	0.000000000 
5.9832825	1.000000000 	0.000000000 	0.228971136	0.099755039	1.000000000 	0.000000000 	1.000000000 	0.000000000 
5.983285	1.000000000 	0.000000000 	0.245954252	0.054280958	1.000000000 	0.000000000 	1.000000000 	0.000000000 
5.9832875	1.000000000 	0.000000000 	0.247182536	0.040609563	1.000000000 	0.000000000 	1.000000000 	0.000000000 
5.98329	1.000000000 	0.000000000 	0.237946853	0.079606462	1.000000000 	0.000000000 	1.000000000 	0.000000000 
5.9832925	1.000000000 	0.000000000 	0.2477041	0.049699721	1.000000000 	0.000000000 	1.000000000 	0.000000000 
5.983295	1.000000000 	0.000000000 	0.244537402	0.056239724	1.000000000 	0.000000000 	1.000000000 	0.000000000 
5.9832975	1.000000000 	0.000000000 	0.240921466	0.071529709	1.000000000 	0.000000000 	1.000000000 	0.000000000 
5.9833	1.000000000 	0.000000000 	0.243278752	0.060784952	1.000000000 	0.000000000 	1.000000000 	0.000000000 
5.9833025	1.000000000 	0.000000000 	0.249673587	0.03089633	1.000000000 	0.000000000 	1.000000000 	0.000000000 
5.983305	1.000000000 	0.000000000 	0.248290293	0.049211029	1.000000000 	0.000000000 	1.000000000 	0.000000000 
5.9833075	1.000000000 	0.000000000 	0.243349788	0.060674881	1.000000000 	0.000000000 	1.000000000 	0.000000000 
5.98331	1.000000000 	0.000000000 	0.247630253	0.049330158	1.000000000 	0.000000000 	1.000000000 	0.000000000 
5.9833125	1.000000000 	0.000000000 	0.238157668	0.073478724	1.000000000 	0.000000000 	1.000000000 	0.000000000 
5.983315	1.000000000 	0.000000000 	0.246912118	0.04898947	1.000000000 	0.000000000 	1.000000000 	0.000000000 
5.9833175	1.000000000 	0.000000000 	0.246073355	0.060220012	1.000000000 	0.000000000 	1.000000000 	0.000000000 
5.98332	1.000000000 	0.000000000 	0.243166031	0.062662221	1.000000000 	0.000000000 	1.000000000 	0.000000000 
5.9833225	1.000000000 	0.000000000 	0.246134983	0.045692281	1.000000000 	0.000000000 	1.000000000 	0.000000000 
5.983325	1.000000000 	0.000000000 	0.243623883	0.061534551	1.000000000 	0.000000000 	1.000000000 	0.000000000 
5.9833275	1.000000000 	0.000000000 	0.245672113	0.052018353	1.000000000 	0.000000000 	1.000000000 	0.000000000 
5.98333	1.000000000 	0.000000000 	0.24713688	0.040102062	1.000000000 	0.000000000 	1.000000000 	0.000000000 
5.9833325	1.000000000 	0.000000000 	0.242944789	0.071680697	1.000000000 	0.000000000 	1.000000000 	0.000000000 
5.983335	1.000000000 	0.000000000 	0.237630317	0.074064969	1.000000000 	0.000000000 	1.000000000 	0.000000000 
5.9833375	1.000000000 	0.000000000 	0.248390992	0.033090578	1.000000000 	0.000000000 	1.000000000 	0.000000000 
5.98334	1.000000000 	0.000000000 	0.245164947	0.051601643	1.000000000 	0.000000000 	1.000000000 	0.000000000 
5.9833425	1.000000000 	0.000000000 	0.239617563	0.072470746	1.000000000 	0.000000000 	1.000000000 	0.000000000 
5.983345	1.000000000 	0.000000000 	0.245425201	0.064249309	1.000000000 	0.000000000 	1.000000000 	0.000000000 
5.9833475	1.000000000 	0.000000000 	0.244736042	0.05216892	1.000000000 	0.000000000 	1.000000000 	0.000000000 
5.98335	1.000000000 	0.000000000 	0.24309592	0.06295154	1.000000000 	0.000000000 	1.000000000 	0.000000000 
5.9833525	1.000000000 	0.000000000 	0.243914835	0.066355021	1.000000000 	0.000000000 	1.000000000 	0.000000000 
5.983355	1.000000000 	0.000000000 	0.247161499	0.042501006	1.000000000 	0.000000000 	1.000000000 	0.000000000 
5.9833575	1.000000000 	0.000000000 	0.246594657	0.040770771	1.000000000 	0.000000000 	1.000000000 	0.000000000 
5.98336	1.000000000 	0.000000000 	0.244032446	0.048852084	1.000000000 	0.000000000 	1.000000000 	0.000000000 
5.9833625	1.000000000 	0.000000000 	0.239086922	0.073065984	1.000000000 	0.000000000 	1.000000000 	0.000000000 
5.983365	1.000000000 	0.000000000 	0.242040865	0.061917239	1.000000000 	0.000000000 	1.000000000 	0.000000000 
5.9833675	1.000000000 	0.000000000 	0.248042358	0.047293046	1.000000000 	0.000000000 	1.000000000 	0.000000000 
5.98337	1.000000000 	0.000000000 	0.243290323	0.069003329	1.000000000 	0.000000000 	1.000000000 	0.000000000 
5.9833725	1.000000000 	0.000000000 	0.247759174	0.050263008	1.000000000 	0.000000000 	1.000000000 	0.000000000 
5.983375	1.000000000 	0.000000000 	0.248594642	0.042454205	1.000000000 	0.000000000 	1.000000000 	0.000000000 
5.9833775	1.000000000 	0.000000000 	0.242619841	0.070452318	1.000000000 	0.000000000 	1.000000000 	0.000000000 
5.98338	1.000000000 	0.000000000 	0.240718449	0.071933002	1.000000000 	0.000000000 	1.000000000 	0.000000000 
5.9833825	1.000000000 	0.000000000 	0.249232679	0.040959935	1.000000000 	0.000000000 	1.000000000 	0.000000000 
5.983385	1.000000000 	0.000000000 	0.244316791	0.059821133	1.000000000 	0.000000000 	1.000000000 	0.000000000 
5.9833875	1.000000000 	0.000000000 	0.241569133	0.07220179	1.000000000 	0.000000000 	1.000000000 	0.000000000 
5.98339	1.000000000 	0.000000000 	0.248820991	0.0284255	1.000000000 	0.000000000 	1.000000000 	0.000000000 
5.9833925	1.000000000 	0.000000000 	0.242361516	0.066303847	1.000000000 	0.000000000 	1.000000000 	0.000000000 
5.983395	1.000000000 	0.000000000 	0.236272224	0.092797626	1.000000000 	0.000000000 	1.000000000 	0.000000000 
5.9833975	1.000000000 	0.000000000 	0.246024949	0.041815477	1.000000000 	0.000000000 	1.000000000 	0.000000000 
5.9834	1.000000000 	0.000000000 	0.247831585	0.043509367	1.000000000 	0.000000000 	1.000000000 	0.000000000 
5.9834025	1.000000000 	0.000000000 	0.24646814	0.053161431	1.000000000 	0.000000000 	1.000000000 	0.000000000 
5.983405	1.000000000 	0.000000000 	0.24250749	0.066377399	1.000000000 	0.000000000 	1.000000000 	0.000000000 
5.9834075	1.000000000 	0.000000000 	0.245921426	0.055433344	1.000000000 	0.000000000 	1.000000000 	0.000000000 
5.98341	1.000000000 	0.000000000 	0.245989877	0.045516275	1.000000000 	0.000000000 	1.000000000 	0.000000000 
5.9834125	1.000000000 	0.000000000 	0.239146953	0.072110554	1.000000000 	0.000000000 	1.000000000 	0.000000000 
5.983415	1.000000000 	0.000000000 	0.246383346	0.044878802	1.000000000 	0.000000000 	1.000000000 	0.000000000 
5.9834175	1.000000000 	0.000000000 	0.24086561	0.066284091	1.000000000 	0.000000000 	1.000000000 	0.000000000 
5.98342	1.000000000 	0.000000000 	0.238373964	0.080405658	1.000000000 	0.000000000 	1.000000000 	0.000000000 
5.9834225	1.000000000 	0.000000000 	0.252256988	0.021949587	1.000000000 	0.000000000 	1.000000000 	0.000000000 
5.983425	1.000000000 	0.000000000 	0.246774429	0.050492505	1.000000000 	0.000000000 	1.000000000 	0.000000000 
5.9834275	1.000000000 	0.000000000 	0.245570497	0.053389482	1.000000000 	0.000000000 	1.000000000 	0.000000000 
5.98343	1.000000000 	0.000000000 	0.243767965	0.049752242	1.000000000 	0.000000000 	1.000000000 	0.000000000 
5.9834325	1.000000000 	0.000000000 	0.230723722	0.098153305	1.000000000 	0.000000000 	1.000000000 	0.000000000 
5.983435	1.000000000 	0.000000000 	0.24452946	0.055372693	1.000000000 	0.000000000 	1.000000000 	0.000000000 
5.9834375	1.000000000 	0.000000000 	0.245470111	0.055281834	1.000000000 	0.000000000 	1.000000000 	0.000000000 
5.98344	1.000000000 	0.000000000 	0.240503372	0.072861521	1.000000000 	0.000000000 	1.000000000 	0.000000000 
5.9834425	1.000000000 	0.000000000 	0.247057318	0.043036957	1.000000000 	0.000000000 	1.000000000 	0.000000000 
5.983445	1.000000000 	0.000000000 	0.245189111	0.045728641	1.000000000 	0.000000000 	1.000000000 	0.000000000 
