! FREQ.GHZ	S11RE	S11IM	S21RE	S21IM	S12RE	S12IM	S22RE	S22IM
6.5794	1.000000000 	0.000000000 	0.542719427	0.305193562	1.000000000 	0.000000000 	1.000000000 	0.000000000 
6.579401083	1.000000000 	0.000000000 	0.542721532	0.305194745	1.000000000 	0.000000000 	1.000000000 	0.000000000 
6.579402167	1.000000000 	0.000000000 	0.542723639	0.30519593	1.000000000 	0.000000000 	1.000000000 	0.000000000 
6.57940325	1.000000000 	0.000000000 	0.542725744	0.305197114	1.000000000 	0.000000000 	1.000000000 	0.000000000 
6.579404333	1.000000000 	0.000000000 	0.54272785	0.305198298	1.000000000 	0.000000000 	1.000000000 	0.000000000 
6.579405417	1.000000000 	0.000000000 	0.542729957	0.305199483	1.000000000 	0.000000000 	1.000000000 	0.000000000 
6.5794065	1.000000000 	0.000000000 	0.542732062	0.305200667	1.000000000 	0.000000000 	1.000000000 	0.000000000 
6.579407583	1.000000000 	0.000000000 	0.542734167	0.305201851	1.000000000 	0.000000000 	1.000000000 	0.000000000 
6.579408667	1.000000000 	0.000000000 	0.542736274	0.305203036	1.000000000 	0.000000000 	1.000000000 	0.000000000 
6.57940975	1.000000000 	0.000000000 	0.54273838	0.30520422	1.000000000 	0.000000000 	1.000000000 	0.000000000 
6.579410833	1.000000000 	0.000000000 	0.542740485	0.305205404	1.000000000 	0.000000000 	1.000000000 	0.000000000 
6.579411917	1.000000000 	0.000000000 	0.542742592	0.305206589	1.000000000 	0.000000000 	1.000000000 	0.000000000 
6.579413	1.000000000 	0.000000000 	0.542744697	0.305207772	1.000000000 	0.000000000 	1.000000000 	0.000000000 
6.579414083	1.000000000 	0.000000000 	0.542746803	0.305208956	1.000000000 	0.000000000 	1.000000000 	0.000000000 
6.579415167	1.000000000 	0.000000000 	0.54274891	0.305210141	1.000000000 	0.000000000 	1.000000000 	0.000000000 
6.57941625	1.000000000 	0.000000000 	0.542751015	0.305211325	1.000000000 	0.000000000 	1.000000000 	0.000000000 
6.579417333	1.000000000 	0.000000000 	0.542753121	0.305212509	1.000000000 	0.000000000 	1.000000000 	0.000000000 
6.579418417	1.000000000 	0.000000000 	0.542755228	0.305213694	1.000000000 	0.000000000 	1.000000000 	0.000000000 
6.5794195	1.000000000 	0.000000000 	0.542757333	0.305214878	1.000000000 	0.000000000 	1.000000000 	0.000000000 
6.579420583	1.000000000 	0.000000000 	0.542759438	0.305216062	1.000000000 	0.000000000 	1.000000000 	0.000000000 
6.579421667	1.000000000 	0.000000000 	0.542761546	0.305217247	1.000000000 	0.000000000 	1.000000000 	0.000000000 
6.57942275	1.000000000 	0.000000000 	0.542763651	0.305218431	1.000000000 	0.000000000 	1.000000000 	0.000000000 
6.579423833	1.000000000 	0.000000000 	0.542765756	0.305219615	1.000000000 	0.000000000 	1.000000000 	0.000000000 
6.579424917	1.000000000 	0.000000000 	0.542767863	0.3052208	1.000000000 	0.000000000 	1.000000000 	0.000000000 
6.579426	1.000000000 	0.000000000 	0.542769969	0.305221983	1.000000000 	0.000000000 	1.000000000 	0.000000000 
6.579427083	1.000000000 	0.000000000 	0.542772074	0.305223167	1.000000000 	0.000000000 	1.000000000 	0.000000000 
6.579428167	1.000000000 	0.000000000 	0.542774181	0.305224352	1.000000000 	0.000000000 	1.000000000 	0.000000000 
6.57942925	1.000000000 	0.000000000 	0.542776287	0.305225536	1.000000000 	0.000000000 	1.000000000 	0.000000000 
6.579430333	1.000000000 	0.000000000 	0.542778392	0.30522672	1.000000000 	0.000000000 	1.000000000 	0.000000000 
6.579431417	1.000000000 	0.000000000 	0.542780499	0.305227905	1.000000000 	0.000000000 	1.000000000 	0.000000000 
6.5794325	1.000000000 	0.000000000 	0.542782604	0.305229089	1.000000000 	0.000000000 	1.000000000 	0.000000000 
6.579433583	1.000000000 	0.000000000 	0.54278471	0.305230273	1.000000000 	0.000000000 	1.000000000 	0.000000000 
6.579434667	1.000000000 	0.000000000 	0.542786817	0.305231458	1.000000000 	0.000000000 	1.000000000 	0.000000000 
6.57943575	1.000000000 	0.000000000 	0.542788922	0.305232642	1.000000000 	0.000000000 	1.000000000 	0.000000000 
6.579436833	1.000000000 	0.000000000 	0.542791028	0.305233826	1.000000000 	0.000000000 	1.000000000 	0.000000000 
6.579437917	1.000000000 	0.000000000 	0.542793135	0.305235011	1.000000000 	0.000000000 	1.000000000 	0.000000000 
6.579439	1.000000000 	0.000000000 	0.54279524	0.305236195	1.000000000 	0.000000000 	1.000000000 	0.000000000 
6.579440083	1.000000000 	0.000000000 	0.542797345	0.305237379	1.000000000 	0.000000000 	1.000000000 	0.000000000 
6.579441167	1.000000000 	0.000000000 	0.542799453	0.305238564	1.000000000 	0.000000000 	1.000000000 	0.000000000 
6.57944225	1.000000000 	0.000000000 	0.542801558	0.305239747	1.000000000 	0.000000000 	1.000000000 	0.000000000 
6.579443333	1.000000000 	0.000000000 	0.542803663	0.305240931	1.000000000 	0.000000000 	1.000000000 	0.000000000 
6.579444417	1.000000000 	0.000000000 	0.542805771	0.305242116	1.000000000 	0.000000000 	1.000000000 	0.000000000 
6.5794455	1.000000000 	0.000000000 	0.542807876	0.3052433	1.000000000 	0.000000000 	1.000000000 	0.000000000 
6.579446583	1.000000000 	0.000000000 	0.542809981	0.305244484	1.000000000 	0.000000000 	1.000000000 	0.000000000 
6.579447667	1.000000000 	0.000000000 	0.542812088	0.305245669	1.000000000 	0.000000000 	1.000000000 	0.000000000 
6.57944875	1.000000000 	0.000000000 	0.542814194	0.305246853	1.000000000 	0.000000000 	1.000000000 	0.000000000 
6.579449833	1.000000000 	0.000000000 	0.542816299	0.305248037	1.000000000 	0.000000000 	1.000000000 	0.000000000 
6.579450917	1.000000000 	0.000000000 	0.542818406	0.305249222	1.000000000 	0.000000000 	1.000000000 	0.000000000 
6.579452	1.000000000 	0.000000000 	0.542820512	0.305250406	1.000000000 	0.000000000 	1.000000000 	0.000000000 
6.579453083	1.000000000 	0.000000000 	0.542822617	0.30525159	1.000000000 	0.000000000 	1.000000000 	0.000000000 
6.579454167	1.000000000 	0.000000000 	0.542824724	0.305252775	1.000000000 	0.000000000 	1.000000000 	0.000000000 
6.57945525	1.000000000 	0.000000000 	0.54282683	0.305253959	1.000000000 	0.000000000 	1.000000000 	0.000000000 
6.579456333	1.000000000 	0.000000000 	0.542828935	0.305255143	1.000000000 	0.000000000 	1.000000000 	0.000000000 
6.579457417	1.000000000 	0.000000000 	0.542831042	0.305256328	1.000000000 	0.000000000 	1.000000000 	0.000000000 
6.5794585	1.000000000 	0.000000000 	0.542833148	0.305257512	1.000000000 	0.000000000 	1.000000000 	0.000000000 
6.579459583	1.000000000 	0.000000000 	0.542835253	0.305258695	1.000000000 	0.000000000 	1.000000000 	0.000000000 
6.579460667	1.000000000 	0.000000000 	0.54283736	0.30525988	1.000000000 	0.000000000 	1.000000000 	0.000000000 
6.57946175	1.000000000 	0.000000000 	0.542839465	0.305261064	1.000000000 	0.000000000 	1.000000000 	0.000000000 
6.579462833	1.000000000 	0.000000000 	0.542841571	0.305262248	1.000000000 	0.000000000 	1.000000000 	0.000000000 
6.579463917	1.000000000 	0.000000000 	0.542843678	0.305263433	1.000000000 	0.000000000 	1.000000000 	0.000000000 
6.579465	1.000000000 	0.000000000 	0.542845783	0.305264617	1.000000000 	0.000000000 	1.000000000 	0.000000000 
6.579466083	1.000000000 	0.000000000 	0.542847889	0.305265801	1.000000000 	0.000000000 	1.000000000 	0.000000000 
6.579467167	1.000000000 	0.000000000 	0.542849996	0.305266986	1.000000000 	0.000000000 	1.000000000 	0.000000000 
6.57946825	1.000000000 	0.000000000 	0.542852101	0.30526817	1.000000000 	0.000000000 	1.000000000 	0.000000000 
6.579469333	1.000000000 	0.000000000 	0.542854207	0.305269354	1.000000000 	0.000000000 	1.000000000 	0.000000000 
6.579470417	1.000000000 	0.000000000 	0.542856314	0.305270539	1.000000000 	0.000000000 	1.000000000 	0.000000000 
6.5794715	1.000000000 	0.000000000 	0.542858419	0.305271723	1.000000000 	0.000000000 	1.000000000 	0.000000000 
6.579472583	1.000000000 	0.000000000 	0.542860525	0.305272907	1.000000000 	0.000000000 	1.000000000 	0.000000000 
6.579473667	1.000000000 	0.000000000 	0.542862632	0.305274092	1.000000000 	0.000000000 	1.000000000 	0.000000000 
6.57947475	1.000000000 	0.000000000 	0.542864737	0.305275276	1.000000000 	0.000000000 	1.000000000 	0.000000000 
6.579475833	1.000000000 	0.000000000 	0.542866843	0.30527646	1.000000000 	0.000000000 	1.000000000 	0.000000000 
6.579476917	1.000000000 	0.000000000 	0.54286895	0.305277645	1.000000000 	0.000000000 	1.000000000 	0.000000000 
6.579478	1.000000000 	0.000000000 	0.542871055	0.305278829	1.000000000 	0.000000000 	1.000000000 	0.000000000 
6.579479083	1.000000000 	0.000000000 	0.542873161	0.305280013	1.000000000 	0.000000000 	1.000000000 	0.000000000 
6.579480167	1.000000000 	0.000000000 	0.542875268	0.305281198	1.000000000 	0.000000000 	1.000000000 	0.000000000 
6.57948125	1.000000000 	0.000000000 	0.542877373	0.305282382	1.000000000 	0.000000000 	1.000000000 	0.000000000 
6.579482333	1.000000000 	0.000000000 	0.542879479	0.305283566	1.000000000 	0.000000000 	1.000000000 	0.000000000 
6.579483417	1.000000000 	0.000000000 	0.542881586	0.305284751	1.000000000 	0.000000000 	1.000000000 	0.000000000 
6.5794845	1.000000000 	0.000000000 	0.542883691	0.305285934	1.000000000 	0.000000000 	1.000000000 	0.000000000 
6.579485583	1.000000000 	0.000000000 	0.542885797	0.305287118	1.000000000 	0.000000000 	1.000000000 	0.000000000 
6.579486667	1.000000000 	0.000000000 	0.542887904	0.305288303	1.000000000 	0.000000000 	1.000000000 	0.000000000 
6.57948775	1.000000000 	0.000000000 	0.54289001	0.305289487	1.000000000 	0.000000000 	1.000000000 	0.000000000 
6.579488833	1.000000000 	0.000000000 	0.542892115	0.305290671	1.000000000 	0.000000000 	1.000000000 	0.000000000 
6.579489917	1.000000000 	0.000000000 	0.542894222	0.305291856	1.000000000 	0.000000000 	1.000000000 	0.000000000 
6.579491	1.000000000 	0.000000000 	0.542896328	0.30529304	1.000000000 	0.000000000 	1.000000000 	0.000000000 
6.579492083	1.000000000 	0.000000000 	0.542898433	0.305294224	1.000000000 	0.000000000 	1.000000000 	0.000000000 
6.579493167	1.000000000 	0.000000000 	0.54290054	0.305295409	1.000000000 	0.000000000 	1.000000000 	0.000000000 
6.57949425	1.000000000 	0.000000000 	0.542902646	0.305296593	1.000000000 	0.000000000 	1.000000000 	0.000000000 
6.579495333	1.000000000 	0.000000000 	0.542904751	0.305297777	1.000000000 	0.000000000 	1.000000000 	0.000000000 
6.579496417	1.000000000 	0.000000000 	0.542906858	0.305298962	1.000000000 	0.000000000 	1.000000000 	0.000000000 
6.5794975	1.000000000 	0.000000000 	0.542908964	0.305300146	1.000000000 	0.000000000 	1.000000000 	0.000000000 
6.579498583	1.000000000 	0.000000000 	0.542911069	0.30530133	1.000000000 	0.000000000 	1.000000000 	0.000000000 
6.579499667	1.000000000 	0.000000000 	0.542913176	0.305302515	1.000000000 	0.000000000 	1.000000000 	0.000000000 
6.57950075	1.000000000 	0.000000000 	0.542915282	0.305303699	1.000000000 	0.000000000 	1.000000000 	0.000000000 
6.579501833	1.000000000 	0.000000000 	0.542917387	0.305304883	1.000000000 	0.000000000 	1.000000000 	0.000000000 
6.579502917	1.000000000 	0.000000000 	0.542919495	0.305306068	1.000000000 	0.000000000 	1.000000000 	0.000000000 
6.579504	1.000000000 	0.000000000 	0.5429216	0.305307252	1.000000000 	0.000000000 	1.000000000 	0.000000000 
6.579505083	1.000000000 	0.000000000 	0.542923705	0.305308436	1.000000000 	0.000000000 	1.000000000 	0.000000000 
6.579506167	1.000000000 	0.000000000 	0.542925813	0.305309621	1.000000000 	0.000000000 	1.000000000 	0.000000000 
6.57950725	1.000000000 	0.000000000 	0.542927918	0.305310805	1.000000000 	0.000000000 	1.000000000 	0.000000000 
6.579508333	1.000000000 	0.000000000 	0.542930024	0.305311989	1.000000000 	0.000000000 	1.000000000 	0.000000000 
6.579509417	1.000000000 	0.000000000 	0.542932131	0.305313174	1.000000000 	0.000000000 	1.000000000 	0.000000000 
6.5795105	1.000000000 	0.000000000 	0.542934236	0.305314358	1.000000000 	0.000000000 	1.000000000 	0.000000000 
6.579511583	1.000000000 	0.000000000 	0.542936342	0.305315542	1.000000000 	0.000000000 	1.000000000 	0.000000000 
6.579512667	1.000000000 	0.000000000 	0.542938449	0.305316727	1.000000000 	0.000000000 	1.000000000 	0.000000000 
6.57951375	1.000000000 	0.000000000 	0.542940554	0.305317911	1.000000000 	0.000000000 	1.000000000 	0.000000000 
6.579514833	1.000000000 	0.000000000 	0.54294266	0.305319095	1.000000000 	0.000000000 	1.000000000 	0.000000000 
6.579515917	1.000000000 	0.000000000 	0.542944767	0.30532028	1.000000000 	0.000000000 	1.000000000 	0.000000000 
6.579517	1.000000000 	0.000000000 	0.542946873	0.305321464	1.000000000 	0.000000000 	1.000000000 	0.000000000 
6.579518083	1.000000000 	0.000000000 	0.542948978	0.305322648	1.000000000 	0.000000000 	1.000000000 	0.000000000 
6.579519167	1.000000000 	0.000000000 	0.542951085	0.305323833	1.000000000 	0.000000000 	1.000000000 	0.000000000 
6.57952025	1.000000000 	0.000000000 	0.542953191	0.305325017	1.000000000 	0.000000000 	1.000000000 	0.000000000 
6.579521333	1.000000000 	0.000000000 	0.542955296	0.305326201	1.000000000 	0.000000000 	1.000000000 	0.000000000 
6.579522417	1.000000000 	0.000000000 	0.542957404	0.305327386	1.000000000 	0.000000000 	1.000000000 	0.000000000 
6.5795235	1.000000000 	0.000000000 	0.542959509	0.30532857	1.000000000 	0.000000000 	1.000000000 	0.000000000 
6.579524583	1.000000000 	0.000000000 	0.542961614	0.305329754	1.000000000 	0.000000000 	1.000000000 	0.000000000 
6.579525667	1.000000000 	0.000000000 	0.542963722	0.305330939	1.000000000 	0.000000000 	1.000000000 	0.000000000 
6.57952675	1.000000000 	0.000000000 	0.542965827	0.305332123	1.000000000 	0.000000000 	1.000000000 	0.000000000 
6.579527833	1.000000000 	0.000000000 	0.542967933	0.305333307	1.000000000 	0.000000000 	1.000000000 	0.000000000 
6.579528917	1.000000000 	0.000000000 	0.54297004	0.305334492	1.000000000 	0.000000000 	1.000000000 	0.000000000 
6.57953	1.000000000 	0.000000000 	0.542972145	0.305335676	1.000000000 	0.000000000 	1.000000000 	0.000000000 
6.579531083	1.000000000 	0.000000000 	0.542974251	0.30533686	1.000000000 	0.000000000 	1.000000000 	0.000000000 
6.579532167	1.000000000 	0.000000000 	0.542976358	0.305338045	1.000000000 	0.000000000 	1.000000000 	0.000000000 
6.57953325	1.000000000 	0.000000000 	0.542978464	0.305339229	1.000000000 	0.000000000 	1.000000000 	0.000000000 
6.579534333	1.000000000 	0.000000000 	0.542980569	0.305340413	1.000000000 	0.000000000 	1.000000000 	0.000000000 
6.579535417	1.000000000 	0.000000000 	0.542982676	0.305341598	1.000000000 	0.000000000 	1.000000000 	0.000000000 
6.5795365	1.000000000 	0.000000000 	0.542984782	0.305342782	1.000000000 	0.000000000 	1.000000000 	0.000000000 
6.579537583	1.000000000 	0.000000000 	0.542986887	0.305343966	1.000000000 	0.000000000 	1.000000000 	0.000000000 
6.579538667	1.000000000 	0.000000000 	0.542988995	0.305345151	1.000000000 	0.000000000 	1.000000000 	0.000000000 
6.57953975	1.000000000 	0.000000000 	0.5429911	0.305346335	1.000000000 	0.000000000 	1.000000000 	0.000000000 
6.579540833	1.000000000 	0.000000000 	0.542993206	0.305347519	1.000000000 	0.000000000 	1.000000000 	0.000000000 
6.579541917	1.000000000 	0.000000000 	0.542995313	0.305348704	1.000000000 	0.000000000 	1.000000000 	0.000000000 
6.579543	1.000000000 	0.000000000 	0.542997418	0.305349888	1.000000000 	0.000000000 	1.000000000 	0.000000000 
6.579544083	1.000000000 	0.000000000 	0.542999524	0.305351072	1.000000000 	0.000000000 	1.000000000 	0.000000000 
6.579545167	1.000000000 	0.000000000 	0.543001631	0.305352257	1.000000000 	0.000000000 	1.000000000 	0.000000000 
6.57954625	1.000000000 	0.000000000 	0.543003737	0.305353441	1.000000000 	0.000000000 	1.000000000 	0.000000000 
6.579547333	1.000000000 	0.000000000 	0.543005842	0.305354625	1.000000000 	0.000000000 	1.000000000 	0.000000000 
6.579548417	1.000000000 	0.000000000 	0.543007949	0.30535581	1.000000000 	0.000000000 	1.000000000 	0.000000000 
6.5795495	1.000000000 	0.000000000 	0.543010055	0.305356994	1.000000000 	0.000000000 	1.000000000 	0.000000000 
6.579550583	1.000000000 	0.000000000 	0.54301216	0.305358178	1.000000000 	0.000000000 	1.000000000 	0.000000000 
6.579551667	1.000000000 	0.000000000 	0.543014268	0.305359363	1.000000000 	0.000000000 	1.000000000 	0.000000000 
6.57955275	1.000000000 	0.000000000 	0.543016373	0.305360547	1.000000000 	0.000000000 	1.000000000 	0.000000000 
6.579553833	1.000000000 	0.000000000 	0.543018479	0.305361731	1.000000000 	0.000000000 	1.000000000 	0.000000000 
6.579554917	1.000000000 	0.000000000 	0.543020586	0.305362916	1.000000000 	0.000000000 	1.000000000 	0.000000000 
6.579556	1.000000000 	0.000000000 	0.543022692	0.3053641	1.000000000 	0.000000000 	1.000000000 	0.000000000 
6.579557083	1.000000000 	0.000000000 	0.543024797	0.305365284	1.000000000 	0.000000000 	1.000000000 	0.000000000 
6.579558167	1.000000000 	0.000000000 	0.543026904	0.305366469	1.000000000 	0.000000000 	1.000000000 	0.000000000 
6.57955925	1.000000000 	0.000000000 	0.54302901	0.305367653	1.000000000 	0.000000000 	1.000000000 	0.000000000 
6.579560333	1.000000000 	0.000000000 	0.543031115	0.305368837	1.000000000 	0.000000000 	1.000000000 	0.000000000 
6.579561417	1.000000000 	0.000000000 	0.543033223	0.305370022	1.000000000 	0.000000000 	1.000000000 	0.000000000 
6.5795625	1.000000000 	0.000000000 	0.543035328	0.305371206	1.000000000 	0.000000000 	1.000000000 	0.000000000 
6.579563583	1.000000000 	0.000000000 	0.543037434	0.30537239	1.000000000 	0.000000000 	1.000000000 	0.000000000 
6.579564667	1.000000000 	0.000000000 	0.543039541	0.305373575	1.000000000 	0.000000000 	1.000000000 	0.000000000 
6.57956575	1.000000000 	0.000000000 	0.543041647	0.305374759	1.000000000 	0.000000000 	1.000000000 	0.000000000 
6.579566833	1.000000000 	0.000000000 	0.543043752	0.305375943	1.000000000 	0.000000000 	1.000000000 	0.000000000 
6.579567917	1.000000000 	0.000000000 	0.543045859	0.305377128	1.000000000 	0.000000000 	1.000000000 	0.000000000 
6.579569	1.000000000 	0.000000000 	0.543047965	0.305378312	1.000000000 	0.000000000 	1.000000000 	0.000000000 
6.579570083	1.000000000 	0.000000000 	0.54305007	0.305379496	1.000000000 	0.000000000 	1.000000000 	0.000000000 
6.579571167	1.000000000 	0.000000000 	0.543052178	0.305380681	1.000000000 	0.000000000 	1.000000000 	0.000000000 
6.57957225	1.000000000 	0.000000000 	0.543054283	0.305381865	1.000000000 	0.000000000 	1.000000000 	0.000000000 
6.579573333	1.000000000 	0.000000000 	0.543056389	0.305383049	1.000000000 	0.000000000 	1.000000000 	0.000000000 
6.579574417	1.000000000 	0.000000000 	0.543058496	0.305384234	1.000000000 	0.000000000 	1.000000000 	0.000000000 
6.5795755	1.000000000 	0.000000000 	0.543060602	0.305385418	1.000000000 	0.000000000 	1.000000000 	0.000000000 
6.579576583	1.000000000 	0.000000000 	0.543062707	0.305386602	1.000000000 	0.000000000 	1.000000000 	0.000000000 
6.579577667	1.000000000 	0.000000000 	0.543064815	0.305387788	1.000000000 	0.000000000 	1.000000000 	0.000000000 
6.57957875	1.000000000 	0.000000000 	0.54306692	0.305388972	1.000000000 	0.000000000 	1.000000000 	0.000000000 
6.579579833	1.000000000 	0.000000000 	0.543069026	0.305390156	1.000000000 	0.000000000 	1.000000000 	0.000000000 
6.579580917	1.000000000 	0.000000000 	0.543071133	0.305391341	1.000000000 	0.000000000 	1.000000000 	0.000000000 
6.579582	1.000000000 	0.000000000 	0.543073239	0.305392525	1.000000000 	0.000000000 	1.000000000 	0.000000000 
6.579583083	1.000000000 	0.000000000 	0.543075344	0.305393709	1.000000000 	0.000000000 	1.000000000 	0.000000000 
6.579584167	1.000000000 	0.000000000 	0.543077451	0.305394894	1.000000000 	0.000000000 	1.000000000 	0.000000000 
6.57958525	1.000000000 	0.000000000 	0.543079557	0.305396078	1.000000000 	0.000000000 	1.000000000 	0.000000000 
6.579586333	1.000000000 	0.000000000 	0.543081662	0.305397262	1.000000000 	0.000000000 	1.000000000 	0.000000000 
6.579587417	1.000000000 	0.000000000 	0.54308377	0.305398447	1.000000000 	0.000000000 	1.000000000 	0.000000000 
6.5795885	1.000000000 	0.000000000 	0.543085875	0.305399631	1.000000000 	0.000000000 	1.000000000 	0.000000000 
6.579589583	1.000000000 	0.000000000 	0.543087981	0.305400815	1.000000000 	0.000000000 	1.000000000 	0.000000000 
