<b>frequency(GHz)</b>	Amplitude	UPhase	I	Q	exported by	S21image	S21real	cosphase	mag/20
6.5794	-12.64936793	0.419213578	0.201611823	0.116985526	bchuang	0.282827995	0.634670546	0.91340933	-0.632468397
6.579401083	-12.54046232	0.561149523	0.205414779	0.116264407	bchuang	0.370925144	0.590126375	0.846643941	-0.627023116
6.579402167	-12.65872669	0.575027973	0.201596738	0.116510675	bchuang	0.377791036	0.582934199	0.839177089	-0.632936335
6.57940325	-12.64267683	0.506509254	0.202988959	0.114944321	bchuang	0.337149606	0.607712527	0.87444329	-0.632133842
6.579404333	-12.62210218	0.563725186	0.203530853	0.115110018	bchuang	0.371569743	0.587786246	0.84527047	-0.631105109
6.579405417	-12.65110389	0.609403217	0.202949639	0.114554226	bchuang	0.397689652	0.569730703	0.819989749	-0.632555195
6.5794065	-12.55195188	0.557608384	0.204601449	0.117062778	bchuang	0.368711152	0.591240617	0.84852308	-0.627597594
6.579407583	-12.56641516	0.509540683	0.205194812	0.115220634	bchuang	0.339735188	0.608020826	0.872968644	-0.628320758
6.579408667	-12.59579173	0.624571396	0.204600379	0.114656218	bchuang	0.406932676	0.564531194	0.81121382	-0.629789587
6.57940975	-12.60748003	0.597794526	0.20340961	0.116120842	bchuang	0.391540484	0.57503042	0.826578911	-0.630374002
6.579410833	-12.62321111	0.623305125	0.203570159	0.114979806	bchuang	0.405897043	0.564600273	0.811953621	-0.631160556
6.579411917	-12.6830485	0.621757778	0.200847684	0.11650499	bchuang	0.404325971	0.56425503	0.812855869	-0.634152425
6.579413	-12.64329363	0.561065639	0.202327821	0.116070837	bchuang	0.369779574	0.588413367	0.846688577	-0.632164682
6.579414083	-12.63675447	0.554153209	0.202124873	0.116775457	bchuang	0.365772242	0.5910666	0.850346346	-0.631837724
6.579415167	-12.63125839	0.434637508	0.202921884	0.115683549	bchuang	0.292735624	0.630561493	0.907022741	-0.63156292
6.57941625	-12.67115455	0.54553843	0.203534768	0.112403989	bchuang	0.3603099	0.593607645	0.854848035	-0.633557728
6.579417333	-12.55649086	0.593544704	0.205129791	0.115884306	bchuang	0.389664626	0.577536162	0.828963328	-0.627824543
6.579418417	-12.60574243	0.479541831	0.20475874	0.113821488	bchuang	0.320981605	0.617238329	0.887206403	-0.630287122
6.5794195	-12.60967971	0.576376007	0.205365778	0.112501722	bchuang	0.379111316	0.583247175	0.838443188	-0.630483986
6.579420583	-12.61981886	0.616349797	0.204383433	0.113715831	bchuang	0.401999525	0.567465144	0.815993926	-0.630990943
6.579421667	-12.73168769	0.628958482	0.201838683	0.112133465	bchuang	0.407807178	0.560543714	0.808640675	-0.636584385
6.57942275	-12.66042806	0.59973379	0.202553389	0.11474699	bchuang	0.392056946	0.573395537	0.825485899	-0.633021403
6.579423833	-12.61976304	0.519839159	0.204042572	0.114329391	bchuang	0.345447915	0.603562423	0.867899087	-0.630988152
6.579424917	-12.65877707	0.556173951	0.203443869	0.113251691	bchuang	0.366733356	0.589952196	0.849281249	-0.632938854
6.579426	-12.65915006	0.552245838	0.203394576	0.113319653	bchuang	0.364409222	0.591381862	0.851348502	-0.632957503
6.579427083	-12.60458892	0.613664438	0.205054478	0.113352162	bchuang	0.400649817	0.568791886	0.817543282	-0.630229446
6.579428167	-12.62072215	0.580582908	0.203659592	0.114957695	bchuang	0.381440366	0.581462301	0.83614306	-0.631036108
6.57942925	-12.66463166	0.517534711	0.20353266	0.112768669	bchuang	0.343612086	0.60357691	0.869041494	-0.633231583
6.579430333	-12.61558929	0.572308816	0.204670181	0.113434107	bchuang	0.376671935	0.584684807	0.840652821	-0.630779465
6.579431417	-12.65054755	0.590958191	0.203883336	0.112914878	bchuang	0.3871201	0.576978009	0.830407198	-0.632527378
6.5794325	-12.72638648	0.624733354	0.20180533	0.112483299	bchuang	0.405497043	0.56234754	0.811119105	-0.636319324
6.579433583	-12.58951555	0.563951936	0.204507825	0.115167112	bchuang	0.372051805	0.588253453	0.845149286	-0.629475778
6.579434667	-12.67401436	0.463085004	0.203177477	0.112891027	bchuang	0.310170723	0.621214946	0.894678654	-0.633700718
6.57943575	-12.62822125	0.555061239	0.205335606	0.111514269	bchuang	0.366398776	0.59087933	0.849868169	-0.631411063
6.579436833	-12.7162239	0.583500012	0.202481421	0.111822222	bchuang	0.382083226	0.578754082	0.83453944	-0.635811195
6.579437917	-12.60333649	0.612425915	0.205770774	0.11211723	bchuang	0.399959465	0.569308186	0.81825588	-0.630166825
6.579439	-12.65855505	0.575428527	0.203219975	0.113665152	bchuang	0.37802637	0.582785706	0.838959177	-0.632927753
6.579440083	-12.68013375	0.530841822	0.203931314	0.111181923	bchuang	0.351456441	0.598683937	0.862381196	-0.634006688
6.579441167	-12.6206705	0.681861836	0.204783203	0.112946852	bchuang	0.438275646	0.539917639	0.776400662	-0.631033525
6.57944225	-12.56853756	0.598194052	0.20485061	0.115714628	bchuang	0.392209556	0.575518655	0.826353983	-0.628426878
6.579443333	-12.6269635	0.48676836	0.204248026	0.113563645	bchuang	0.325234964	0.614527187	0.883849142	-0.631348175
6.579444417	-12.61557147	0.577402116	0.20511849	0.112622421	bchuang	0.379645207	0.582759027	0.837883528	-0.630778574
6.5794455	-12.65006585	0.612542228	0.203645735	0.113369414	bchuang	0.399488016	0.568496531	0.818189011	-0.632503293
6.579446583	-12.64767966	0.473599986	0.203751486	0.113311066	bchuang	0.31692565	0.618387769	0.88993213	-0.632383983
6.579447667	-12.69509058	0.511393551	0.204140806	0.109956597	bchuang	0.339601116	0.605144942	0.872063361	-0.634754529
6.57944875	-12.66533031	0.605994615	0.204308008	0.111318665	bchuang	0.395583348	0.570849164	0.821935992	-0.633266516
6.579449833	-12.68746476	0.50787203	0.20382267	0.110971748	bchuang	0.337542063	0.606470199	0.873781357	-0.634373238
6.579450917	-12.58833562	0.595850375	0.207144557	0.110421987	bchuang	0.390636989	0.576107907	0.827671557	-0.629416781
6.579452	-12.60306926	0.663787741	0.205465357	0.112690953	bchuang	0.428663178	0.548028021	0.787664242	-0.630153463
6.579453083	-12.61690603	0.519860487	0.205068723	0.112638356	bchuang	0.345489197	0.603604689	0.867888492	-0.630845302
6.579454167	-12.69190872	0.504268384	0.204202094	0.110021958	bchuang	0.33531148	0.607604918	0.875528201	-0.634595436
6.57945525	-12.61648699	0.557973233	0.206154603	0.110662287	bchuang	0.368242206	0.590009111	0.848329961	-0.63082435
6.579456333	-12.73294452	0.524477147	0.203477087	0.109061527	bchuang	0.347110904	0.599996005	0.865585884	-0.636647226
6.579457417	-12.64809294	0.559297472	0.206153899	0.108855239	bchuang	0.368687651	0.588984914	0.847628075	-0.632404647
6.5794585	-12.61057082	0.634070828	0.206583695	0.110198311	bchuang	0.412101625	0.560401719	0.805622513	-0.630528541
6.579459583	-12.68393525	0.548274724	0.204386746	0.110128361	bchuang	0.361799719	0.592401551	0.853425033	-0.634196763
6.579460667	-12.66333282	0.613261236	0.205716974	0.108807343	bchuang	0.399743993	0.567992218	0.817775406	-0.633166641
6.57946175	-12.60979182	0.597731341	0.205523612	0.112206817	bchuang	0.391478101	0.575016896	0.826614471	-0.630489591
6.579462833	-12.64184225	0.512492075	0.205859719	0.109767704	bchuang	0.340787572	0.605699107	0.871525225	-0.632092113
6.579463917	-12.68325487	0.590460135	0.204730356	0.109526822	bchuang	0.386468695	0.576627656	0.83068459	-0.634162744
6.579465	-12.60263309	0.585585221	0.206532265	0.110748376	bchuang	0.384544397	0.579848767	0.833388784	-0.630131655
6.579466083	-12.72579373	0.511071094	0.203548426	0.109330727	bchuang	0.339106162	0.604719786	0.872221123	-0.636289687
6.579467167	-12.63102202	0.539785851	0.206809963	0.108593662	bchuang	0.357301666	0.596358984	0.857818763	-0.631551101
6.57946825	-12.61020331	0.65362567	0.206793838	0.109824579	bchuang	0.422985178	0.552242349	0.793884365	-0.630510166
6.579469333	-12.60638476	0.531467268	0.206173502	0.111201814	bchuang	0.35257843	0.599735692	0.862064389	-0.630319238
6.579470417	-12.68263123	0.504388881	0.205710987	0.107709679	bchuang	0.335474261	0.607726768	0.875469975	-0.634131562
6.5794715	-12.63289041	0.545248819	0.206602287	0.108880534	bchuang	0.360534819	0.594366204	0.854998272	-0.631644521
6.579472583	-12.72943363	0.586709632	0.205026175	0.106323623	bchuang	0.383792888	0.577305224	0.83276681	-0.636471682
6.579473667	-12.67752731	0.612618115	0.205345686	0.108696539	bchuang	0.39921549	0.568017073	0.818145378	-0.633876366
6.57947475	-12.71842498	0.594084849	0.204705987	0.107569907	bchuang	0.388163134	0.574641042	0.828661102	-0.635921249
6.579475833	-12.63221548	0.662279826	0.206107913	0.109852084	bchuang	0.427477551	0.548213698	0.78859238	-0.631610774
6.579476917	-12.66662041	0.531272598	0.204581343	0.11074296	bchuang	0.351851131	0.598765324	0.862163031	-0.633331021
6.579478	-12.5662746	0.536089675	0.208326249	0.10946539	bchuang	0.355757347	0.598790412	0.859712558	-0.62831373
6.579479083	-12.71020452	0.599451136	0.204129146	0.109125774	bchuang	0.391333799	0.572685267	0.825645403	-0.635510226
6.579480167	-12.60316712	0.488825193	0.207050431	0.109745822	bchuang	0.326721955	0.614277517	0.882885144	-0.630158356
6.57948125	-12.67180835	0.536183335	0.206310776	0.107185747	bchuang	0.354734283	0.596941121	0.859664714	-0.633590418
6.579482333	-12.59886147	0.581500975	0.207721384	0.108721306	bchuang	0.382214441	0.58147762	0.835639138	-0.629943074
6.579483417	-12.58194983	0.571605506	0.208337272	0.108529001	bchuang	0.376625108	0.585516214	0.841033508	-0.629097492
6.5794845	-12.63396338	0.571985072	0.206913741	0.108225259	bchuang	0.376283578	0.584497529	0.840828109	-0.631698169
6.579485583	-12.63484227	0.569258318	0.20709678	0.107823435	bchuang	0.374678922	0.585506576	0.842300979	-0.631742114
6.579486667	-12.68493437	0.54709807	0.205768069	0.107467672	bchuang	0.361092033	0.592809806	0.854037732	-0.634246719
6.57948775	-12.70120295	0.508975944	0.205913411	0.106244875	bchuang	0.33807764	0.605857598	0.873243971	-0.635060148
6.579488833	-12.61280708	0.566788291	0.208448872	0.106495716	bchuang	0.373468351	0.586802302	0.843629771	-0.630640354
6.579489917	-12.59364204	0.592308404	0.208581026	0.107371101	bchuang	0.388534639	0.577399721	0.82965416	-0.629682102
6.579491	-12.55869795	0.501143645	0.209472237	0.107706007	bchuang	0.33469203	0.610987823	0.877033695	-0.627934898
6.579492083	-12.64145171	0.620887261	0.208500959	0.104687236	bchuang	0.404318405	0.565283171	0.813362607	-0.632072586
6.579493167	-12.70984059	0.701845943	0.205158785	0.10719844	bchuang	0.447826354	0.529690658	0.763651696	-0.63549203
6.57949425	-12.64342471	0.529660613	0.206555206	0.108361854	bchuang	0.351119812	0.599731988	0.862978592	-0.632171236
6.579495333	-12.56461185	0.560607603	0.20927978	0.107729659	bchuang	0.370347778	0.589917119	0.846932204	-0.628230593
6.579496417	-12.66923401	0.629948399	0.206137219	0.107668089	bchuang	0.409096586	0.561147535	0.808057908	-0.633461701
6.5794975	-12.5284061	0.490938148	0.209300433	0.109821894	bchuang	0.328725756	0.61490753	0.881890954	-0.626420305
6.579498583	-12.67469451	0.508264705	0.207230315	0.105226458	bchuang	0.337904359	0.606560513	0.873590325	-0.633734726
6.579499667	-12.66209926	0.582607008	0.207077138	0.106268318	bchuang	0.382161124	0.579997889	0.835031106	-0.633104963
6.57950075	-12.65961174	0.530327035	0.20745847	0.105668907	bchuang	0.351355674	0.59921862	0.862641697	-0.632980587
6.579501833	-12.67482701	0.603198586	0.207408461	0.104867026	bchuang	0.393878017	0.571796679	0.823525338	-0.633741351
6.579502917	-12.67198593	0.629608552	0.20672742	0.106369564	bchuang	0.408873471	0.561242077	0.808258066	-0.633599297
6.579504	-12.65142623	0.464306551	0.207143313	0.106765367	bchuang	0.311131547	0.621239355	0.894132309	-0.632571312
6.579505083	-12.7067062	0.496049717	0.207488283	0.1028053	bchuang	0.33016586	0.610080288	0.879469576	-0.63533531
6.579506167	-12.65315136	0.663030623	0.208240722	0.104505643	bchuang	0.427631267	0.547562543	0.78813048	-0.632657568
6.57950725	-12.64622899	0.602927089	0.207635293	0.10611225	bchuang	0.394046974	0.572374532	0.823679323	-0.63231145
6.579508333	-12.68770508	0.529501217	0.206988077	0.104935053	bchuang	0.350577121	0.59902401	0.863059115	-0.634385254
6.579509417	-12.70375949	0.579786893	0.206906862	0.104145387	bchuang	0.380067941	0.580376985	0.836579419	-0.635187975
6.5795105	-12.70409357	0.593211335	0.206507872	0.104914645	bchuang	0.387820969	0.575217112	0.829149736	-0.635204679
6.579511583	-12.67430953	0.557717475	0.207324095	0.105064358	bchuang	0.367479202	0.589122	0.848465349	-0.633715477
6.579512667	-12.63557612	0.578043687	0.208376343	0.105285603	bchuang	0.379800265	0.582180033	0.837533155	-0.631778806
6.57951375	-12.63558152	0.560402811	0.208185452	0.105662237	bchuang	0.369471479	0.588789019	0.847041075	-0.631779076
6.579514833	-12.60574708	0.574577798	0.209286709	0.105263894	bchuang	0.378104699	0.583994052	0.839421836	-0.630287354
6.579515917	-12.70289785	0.578139694	0.206564091	0.104874373	bchuang	0.379120832	0.581016654	0.837480694	-0.635144893
6.579517	-12.70513752	0.520964845	0.20683995	0.104196562	bchuang	0.345277633	0.601692832	0.867339363	-0.635256876
6.579518083	-12.5932323	0.620759033	0.209960081	0.104673562	bchuang	0.404807346	0.566120165	0.813437197	-0.629661615
6.579519167	-12.68562269	0.61409395	0.206616383	0.105787186	bchuang	0.399960151	0.567295081	0.817295865	-0.634281135
6.57952025	-12.62678351	0.536387838	0.208560605	0.105445224	bchuang	0.355316515	0.597642559	0.859560224	-0.631339176
6.579521333	-12.77242916	0.479182773	0.205100786	0.103675663	bchuang	0.319224758	0.6143988	0.887372005	-0.638621458
6.579522417	-12.62846303	0.542773251	0.209885801	0.102679378	bchuang	0.35910808	0.595332768	0.856279557	-0.631423152
6.5795235	-12.6180282	0.613898642	0.209229607	0.104639426	bchuang	0.400628021	0.568478099	0.817408389	-0.63090141
6.579524583	-12.59951509	0.601166217	0.210006271	0.104199759	bchuang	0.393567295	0.573838538	0.824676558	-0.629975755
6.579525667	-12.63660512	0.556126782	0.208381136	0.105214771	bchuang	0.36693962	0.590346109	0.849306151	-0.631830256
6.57952675	-12.63550175	0.428515088	0.209389476	0.103260541	bchuang	0.288834321	0.632264689	0.909583764	-0.631775088
6.579527833	-12.63279158	0.560706328	0.210552713	0.101035992	bchuang	0.369679854	0.588724124	0.846879708	-0.631639579
6.579528917	-12.65284792	0.689507776	0.209156172	0.102679679	bchuang	0.441981446	0.536054169	0.77155924	-0.632642396
6.57953	-12.60363052	0.581858348	0.209600494	0.104765453	bchuang	0.382369731	0.581261197	0.835442787	-0.630181526
6.579531083	-12.71261107	0.551175283	0.20760494	0.102213752	bchuang	0.363216583	0.590861766	0.851909628	-0.635630554
6.579532167	-12.71621983	0.559968612	0.207222525	0.10277067	bchuang	0.368359853	0.587584046	0.847271783	-0.635810992
6.57953325	-12.69592147	0.508988262	0.208197976	0.102015879	bchuang	0.3381365	0.605945539	0.873237968	-0.634796074
6.579534333	-12.65877075	0.620156283	0.209518318	0.101575128	bchuang	0.403703799	0.565296707	0.813787641	-0.632938538
6.579535417	-12.688799	0.591072373	0.207703888	0.103445447	bchuang	0.386759934	0.576298968	0.830343575	-0.63443995
6.5795365	-12.71392148	0.523137893	0.207946597	0.101437273	bchuang	0.346496711	0.600789195	0.866255753	-0.635696074
6.579537583	-12.63572175	0.670096955	0.209701898	0.102611135	bchuang	0.431706335	0.544800352	0.783761455	-0.631786088
6.579538667	-12.6156109	0.606371589	0.208918945	0.10540295	bchuang	0.396365324	0.571517278	0.821721216	-0.630780545
6.57953975	-12.64224618	0.482508778	0.209075367	0.103487205	bchuang	0.322472515	0.615636113	0.885833631	-0.632112309
6.579540833	-12.67651296	0.516407312	0.208767727	0.102031535	bchuang	0.342814143	0.603757412	0.869598711	-0.633825648
6.579541917	-12.66419386	0.526853689	0.209361758	0.1015649	bchuang	0.349226205	0.6003562	0.864393362	-0.633209693
6.579543	-12.60396937	0.564610158	0.211182733	0.101517173	bchuang	0.372284018	0.587763863	0.844797264	-0.630198469
6.579544083	-12.63458849	0.605642773	0.210203844	0.101648901	bchuang	0.395732472	0.571493757	0.822136343	-0.631729425
6.579545167	-12.67468251	0.639135226	0.209020045	0.10162569	bchuang	0.41416946	0.557278209	0.802611897	-0.633734126
6.57954625	-12.71316878	0.553239082	0.20738471	0.102626353	bchuang	0.364429379	0.59010143	0.850827026	-0.635658439
6.579547333	-12.69646622	0.507265421	0.208782618	0.10078052	bchuang	0.337086766	0.606517685	0.874076202	-0.634823311
6.579548417	-12.71750115	0.520350584	0.208218243	0.100659654	bchuang	0.344785256	0.601690657	0.867644928	-0.635875058
6.5795495	-12.59565359	0.568597425	0.211968828	0.10039088	bchuang	0.3747143	0.586415139	0.842657021	-0.62978268
6.579550583	-12.67708643	0.556238019	0.209259686	0.100983427	bchuang	0.36657792	0.589617897	0.849247423	-0.633854322
6.579551667	-12.65941178	0.611035487	0.210658541	0.099148423	bchuang	0.39852377	0.568944745	0.819054382	-0.632970589
6.57955275	-12.61073289	0.581947147	0.210332217	0.10285331	bchuang	0.382343178	0.581108437	0.835393982	-0.630536645
6.579553833	-12.64127035	0.435908287	0.210983681	0.099600334	bchuang	0.293452116	0.630007408	0.906486907	-0.632063518
6.579554917	-12.61850089	0.637942689	0.212072197	0.098721147	bchuang	0.414173784	0.558674392	0.803322676	-0.630925045
6.579556	-12.72623868	0.61823013	0.208039592	0.100494917	bchuang	0.401833131	0.564975072	0.814905538	-0.636311934
6.579557083	-12.56578182	0.591003291	0.212743217	0.100643459	bchuang	0.388091816	0.578369909	0.830382069	-0.628289091
6.579558167	-12.56978711	0.574083426	0.211572783	0.102833269	bchuang	0.378207189	0.584785852	0.839690415	-0.628489356
6.57955925	-12.67746402	0.493707075	0.210018725	0.099371577	bchuang	0.329012555	0.611366418	0.880582154	-0.633873201
6.579560333	-12.57720893	0.568102431	0.212519971	0.100391721	bchuang	0.374622809	0.586912046	0.842923448	-0.628860447
6.579561417	-12.63140218	0.578570133	0.211211796	0.099738386	bchuang	0.380152366	0.582049929	0.837245396	-0.631570109
6.5795625	-12.68396272	0.64805293	0.209855535	0.099310178	bchuang	0.419010633	0.553414819	0.797260629	-0.634198136
6.579563583	-12.59068828	0.602088543	0.211156012	0.102397167	bchuang	0.394196529	0.57362101	0.824154536	-0.629534414
6.579564667	-12.68363726	0.527387729	0.209468637	0.100143831	bchuang	0.349351209	0.599833837	0.864124715	-0.634181863
6.57956575	-12.67363624	0.507909077	0.209796318	0.100078371	bchuang	0.337698913	0.606699122	0.87376334	-0.633681812
6.579566833	-12.66884377	0.52880775	0.210732894	0.098394503	bchuang	0.350351778	0.599592393	0.863409179	-0.633442189
6.579567917	-12.67167965	0.563981396	0.210462769	0.098792437	bchuang	0.371190278	0.586853017	0.845133539	-0.633583983
6.579569	-12.67272746	0.572100221	0.210770078	0.098068632	bchuang	0.375931212	0.583802473	0.840765773	-0.633636373
6.579570083	-12.7425952	0.629429468	0.208771971	0.097945406	bchuang	0.40794305	0.560175689	0.808363503	-0.63712976
6.579571167	-12.64842027	0.633654768	0.210591414	0.099980265	bchuang	0.411419986	0.559962776	0.805868929	-0.632421014
6.57957225	-12.69496657	0.524699008	0.209090711	0.100232388	bchuang	0.347623789	0.600575106	0.865474764	-0.634748329
6.579573333	-12.67141599	0.553719129	0.21070756	0.098285951	bchuang	0.365151167	0.590635784	0.850574689	-0.6335708
6.579574417	-12.59995426	0.559400977	0.211669737	0.10075013	bchuang	0.369259883	0.589763326	0.847573152	-0.629997713
6.5795755	-12.62254715	0.558011409	0.212091131	0.098421926	bchuang	0.368200501	0.589892151	0.848309747	-0.631127358
6.579576583	-12.69913853	0.618505841	0.209481834	0.09915238	bchuang	0.402302562	0.565305029	0.814745707	-0.634956927
6.579577667	-12.56779654	0.582162681	0.212810056	0.100374167	bchuang	0.382941367	0.581744496	0.835275494	-0.628389827
6.57957875	-12.71113651	0.62284021	0.209074792	0.09926418	bchuang	0.404609268	0.563361418	0.812224914	-0.635556826
6.579579833	-12.65981856	0.578344925	0.209882866	0.100754831	bchuang	0.379710586	0.5816596	0.837368525	-0.632990928
6.579580917	-12.68937007	0.458136453	0.209533813	0.099651229	bchuang	0.306957127	0.622467055	0.896878259	-0.634468504
6.579582	-12.65509497	0.492023383	0.211587746	0.097426712	bchuang	0.328193971	0.612313608	0.881378797	-0.632754749
6.579583083	-12.64130279	0.575326466	0.211819187	0.097808822	bchuang	0.378154618	0.583113764	0.839014714	-0.63206514
