! FREQ.GHZ	S11RE	S11IM	S21RE	S21IM	S12RE	S12IM	S22RE	S22IM
6.5794	1.000000000 	0.000000000 	3.918626217 	1.746255918	1.000000000 	0.000000000 	1.000000000 	0.000000000 
6.579401083	1.000000000 	0.000000000 	3.586938417 	2.254577502	1.000000000 	0.000000000 	1.000000000 	0.000000000 
6.579402167	1.000000000 	0.000000000 	3.604042910 	2.335726927	1.000000000 	0.000000000 	1.000000000 	0.000000000 
6.57940325	1.000000000 	0.000000000 	3.748568841 	2.079648602	1.000000000 	0.000000000 	1.000000000 	0.000000000 
6.579404333	1.000000000 	0.000000000 	3.614937605 	2.285186915	1.000000000 	0.000000000 	1.000000000 	0.000000000 
6.579405417	1.000000000 	0.000000000 	3.518549117 	2.456056107	1.000000000 	0.000000000 	1.000000000 	0.000000000 
6.5794065	1.000000000 	0.000000000 	3.599658107 	2.244829007	1.000000000 	0.000000000 	1.000000000 	0.000000000 
6.579407583	1.000000000 	0.000000000 	3.709534397 	2.072724013	1.000000000 	0.000000000 	1.000000000 	0.000000000 
6.579408667	1.000000000 	0.000000000 	3.458795835 	2.493213946	1.000000000 	0.000000000 	1.000000000 	0.000000000 
6.57940975	1.000000000 	0.000000000 	3.529054149 	2.40294691	1.000000000 	0.000000000 	1.000000000 	0.000000000 
6.579410833	1.000000000 	0.000000000 	3.472896003 	2.496701267	1.000000000 	0.000000000 	1.000000000 	0.000000000 
6.579411917	1.000000000 	0.000000000 	3.500789283 	2.508546578	1.000000000 	0.000000000 	1.000000000 	0.000000000 
6.579413	1.000000000 	0.000000000 	3.629847523 	2.281123349	1.000000000 	0.000000000 	1.000000000 	0.000000000 
6.579414083	1.000000000 	0.000000000 	3.642785285 	2.254280213	1.000000000 	0.000000000 	1.000000000 	0.000000000 
6.579415167	1.000000000 	0.000000000 	3.883122534 	1.802723938	1.000000000 	0.000000000 	1.000000000 	0.000000000 
6.57941625	1.000000000 	0.000000000 	3.676602221 	2.231635978	1.000000000 	0.000000000 	1.000000000 	0.000000000 
6.579417333	1.000000000 	0.000000000 	3.518518682 	2.37395051	1.000000000 	0.000000000 	1.000000000 	0.000000000 
6.579418417	1.000000000 	0.000000000 	3.787143738 	1.969423185	1.000000000 	0.000000000 	1.000000000 	0.000000000 
6.5794195	1.000000000 	0.000000000 	3.580614994 	2.327403752	1.000000000 	0.000000000 	1.000000000 	0.000000000 
6.579420583	1.000000000 	0.000000000 	3.488814423 	2.471520506	1.000000000 	0.000000000 	1.000000000 	0.000000000 
6.579421667	1.000000000 	0.000000000 	3.502192125 	2.547917412	1.000000000 	0.000000000 	1.000000000 	0.000000000 
6.57942275	1.000000000 	0.000000000 	3.545937382 	2.424520756	1.000000000 	0.000000000 	1.000000000 	0.000000000 
6.579423833	1.000000000 	0.000000000 	3.710713152 	2.123820294	1.000000000 	0.000000000 	1.000000000 	0.000000000 
6.579424917	1.000000000 	0.000000000 	3.647458751 	2.267378267	1.000000000 	0.000000000 	1.000000000 	0.000000000 
6.579426	1.000000000 	0.000000000 	3.656494120 	2.253129933	1.000000000 	0.000000000 	1.000000000 	0.000000000 
6.579427083	1.000000000 	0.000000000 	3.489315183 	2.45782952	1.000000000 	0.000000000 	1.000000000 	0.000000000 
6.579428167	1.000000000 	0.000000000 	3.575334644 	2.345426269	1.000000000 	0.000000000 	1.000000000 	0.000000000 
6.57942925	1.000000000 	0.000000000 	3.734840816 	2.126218585	1.000000000 	0.000000000 	1.000000000 	0.000000000 
6.579430333	1.000000000 	0.000000000 	3.592494727 	2.314395596	1.000000000 	0.000000000 	1.000000000 	0.000000000 
6.579431417	1.000000000 	0.000000000 	3.563021823 	2.390589146	1.000000000 	0.000000000 	1.000000000 	0.000000000 
6.5794325	1.000000000 	0.000000000 	3.510782740 	2.531551964	1.000000000 	0.000000000 	1.000000000 	0.000000000 
6.579433583	1.000000000 	0.000000000 	3.600884626 	2.277446259	1.000000000 	0.000000000 	1.000000000 	0.000000000 
6.579434667	1.000000000 	0.000000000 	3.849176217 	1.921881912	1.000000000 	0.000000000 	1.000000000 	0.000000000 
6.57943575	1.000000000 	0.000000000 	3.637161841 	2.255370225	1.000000000 	0.000000000 	1.000000000 	0.000000000 
6.579436833	1.000000000 	0.000000000 	3.607929653 	2.381891454	1.000000000 	0.000000000 	1.000000000 	0.000000000 
6.579437917	1.000000000 	0.000000000 	3.491853053 	2.45315229	1.000000000 	0.000000000 	1.000000000 	0.000000000 
6.579439	1.000000000 	0.000000000 	3.603035836 	2.33712417	1.000000000 	0.000000000 	1.000000000 	0.000000000 
6.579440083	1.000000000 	0.000000000 	3.712837703 	2.179615394	1.000000000 	0.000000000 	1.000000000 	0.000000000 
6.579441167	1.000000000 	0.000000000 	3.319857343 	2.694878842	1.000000000 	0.000000000 	1.000000000 	0.000000000 
6.57944225	1.000000000 	0.000000000 	3.512311316 	2.393601061	1.000000000 	0.000000000 	1.000000000 	0.000000000 
6.579443333	1.000000000 	0.000000000 	3.782041759 	2.001623756	1.000000000 	0.000000000 	1.000000000 	0.000000000 
6.579444417	1.000000000 	0.000000000 	3.580652923 	2.332658365	1.000000000 	0.000000000 	1.000000000 	0.000000000 
6.5794455	1.000000000 	0.000000000 	3.510402658 	2.466793932	1.000000000 	0.000000000 	1.000000000 	0.000000000 
6.579446583	1.000000000 	0.000000000 	3.817164444 	1.956308618	1.000000000 	0.000000000 	1.000000000 	0.000000000 
6.579447667	1.000000000 	0.000000000 	3.760993381 	2.110630794	1.000000000 	0.000000000 	1.000000000 	0.000000000 
6.57944875	1.000000000 	0.000000000 	3.532681741 	2.44805486	1.000000000 	0.000000000 	1.000000000 	0.000000000 
6.579449833	1.000000000 	0.000000000 	3.765095640 	2.095532726	1.000000000 	0.000000000 	1.000000000 	0.000000000 
6.579450917	1.000000000 	0.000000000 	3.525939140 	2.390806015	1.000000000 	0.000000000 	1.000000000 	0.000000000 
6.579452	1.000000000 	0.000000000 	3.361201844 	2.629105464	1.000000000 	0.000000000 	1.000000000 	0.000000000 
6.579453083	1.000000000 	0.000000000 	3.709447522 	2.123200946	1.000000000 	0.000000000 	1.000000000 	0.000000000 
6.579454167	1.000000000 	0.000000000 	3.774553415 	2.083016537	1.000000000 	0.000000000 	1.000000000 	0.000000000 
6.57945525	1.000000000 	0.000000000 	3.625677362 	2.262892905	1.000000000 	0.000000000 	1.000000000 	0.000000000 
6.579456333	1.000000000 	0.000000000 	3.749362154 	2.169088588	1.000000000 	0.000000000 	1.000000000 	0.000000000 
6.579457417	1.000000000 	0.000000000 	3.635883673 	2.275958823	1.000000000 	0.000000000 	1.000000000 	0.000000000 
6.5794585	1.000000000 	0.000000000 	3.440805588 	2.530259145	1.000000000 	0.000000000 	1.000000000 	0.000000000 
6.579459583	1.000000000 	0.000000000 	3.675886895 	2.244988796	1.000000000 	0.000000000 	1.000000000 	0.000000000 
6.579460667	1.000000000 	0.000000000 	3.513991337 	2.473091859	1.000000000 	0.000000000 	1.000000000 	0.000000000 
6.57946175	1.000000000 	0.000000000 	3.530145412 	2.403363503	1.000000000 	0.000000000 	1.000000000 	0.000000000 
6.579462833	1.000000000 	0.000000000 	3.735700701 	2.101836302	1.000000000 	0.000000000 	1.000000000 	0.000000000 
6.579463917	1.000000000 	0.000000000 	3.577658617 	2.397826468	1.000000000 	0.000000000 	1.000000000 	0.000000000 
6.579465	1.000000000 	0.000000000 	3.556143733 	2.358365191	1.000000000 	0.000000000 	1.000000000 	0.000000000 
6.579466083	1.000000000 	0.000000000 	3.774994182 	2.116887555	1.000000000 	0.000000000 	1.000000000 	0.000000000 
6.579467167	1.000000000 	0.000000000 	3.672371789 	2.200259562	1.000000000 	0.000000000 	1.000000000 	0.000000000 
6.57946825	1.000000000 	0.000000000 	3.390528617 	2.596945625	1.000000000 	0.000000000 	1.000000000 	0.000000000 
6.579469333	1.000000000 	0.000000000 	3.680094266 	2.163489474	1.000000000 	0.000000000 	1.000000000 	0.000000000 
6.579470417	1.000000000 	0.000000000 	3.770273171 	2.081247155	1.000000000 	0.000000000 	1.000000000 	0.000000000 
6.5794715	1.000000000 	0.000000000 	3.661084540 	2.220766329	1.000000000 	0.000000000 	1.000000000 	0.000000000 
6.579472583	1.000000000 	0.000000000 	3.605745661 	2.397102054	1.000000000 	0.000000000 	1.000000000 	0.000000000 
6.579473667	1.000000000 	0.000000000 	3.521330971 	2.474872562	1.000000000 	0.000000000 	1.000000000 	0.000000000 
6.57947475	1.000000000 	0.000000000 	3.583424035 	2.420559971	1.000000000 	0.000000000 	1.000000000 	0.000000000 
6.579475833	1.000000000 	0.000000000 	3.376473536 	2.632854023	1.000000000 	0.000000000 	1.000000000 	0.000000000 
6.579476917	1.000000000 	0.000000000 	3.706128023 	2.177823739	1.000000000 	0.000000000 	1.000000000 	0.000000000 
6.579478	1.000000000 	0.000000000 	3.653145756 	2.170431284	1.000000000 	0.000000000 	1.000000000 	0.000000000 
6.579479083	1.000000000 	0.000000000 	3.567005615 	2.437446779	1.000000000 	0.000000000 	1.000000000 	0.000000000 
6.579480167	1.000000000 	0.000000000 	3.767580715 	2.003901011	1.000000000 	0.000000000 	1.000000000 	0.000000000 
6.57948125	1.000000000 	0.000000000 	3.697596513 	2.197309252	1.000000000 	0.000000000 	1.000000000 	0.000000000 
6.579482333	1.000000000 	0.000000000 	3.564198194 	2.342803873	1.000000000 	0.000000000 	1.000000000 	0.000000000 
6.579483417	1.000000000 	0.000000000 	3.580228872 	2.3029321	1.000000000 	0.000000000 	1.000000000 	0.000000000 
6.5794845	1.000000000 	0.000000000 	3.600852986 	2.318131007	1.000000000 	0.000000000 	1.000000000 	0.000000000 
6.579485583	1.000000000 	0.000000000 	3.607525577 	2.30853734	1.000000000 	0.000000000 	1.000000000 	0.000000000 
6.579486667	1.000000000 	0.000000000 	3.678949082 	2.240919749	1.000000000 	0.000000000 	1.000000000 	0.000000000 
6.57948775	1.000000000 	0.000000000 	3.768736235 	2.103011426	1.000000000 	0.000000000 	1.000000000 	0.000000000 
6.579488833	1.000000000 	0.000000000 	3.604061982 	2.293793122	1.000000000 	0.000000000 	1.000000000 	0.000000000 
6.579489917	1.000000000 	0.000000000 	3.536545071 	2.379755677	1.000000000 	0.000000000 	1.000000000 	0.000000000 
6.579491	1.000000000 	0.000000000 	3.723498444 	2.039689183	1.000000000 	0.000000000 	1.000000000 	0.000000000 
6.579492083	1.000000000 	0.000000000 	3.486236037 	2.493527968	1.000000000 	0.000000000 	1.000000000 	0.000000000 
6.579493167	1.000000000 	0.000000000 	3.299038243 	2.789168071	1.000000000 	0.000000000 	1.000000000 	0.000000000 
6.57949425	1.000000000 	0.000000000 	3.699740451 	2.166054503	1.000000000 	0.000000000 	1.000000000 	0.000000000 
6.579495333	1.000000000 	0.000000000 	3.598149795 	2.258905087	1.000000000 	0.000000000 	1.000000000 	0.000000000 
6.579496417	1.000000000 	0.000000000 	3.474594958 	2.533103767	1.000000000 	0.000000000 	1.000000000 	0.000000000 
6.5794975	1.000000000 	0.000000000 	3.731085426 	1.994615152	1.000000000 	0.000000000 	1.000000000 	0.000000000 
6.579498583	1.000000000 	0.000000000 	3.758742209 	2.093930201	1.000000000 	0.000000000 	1.000000000 	0.000000000 
6.579499667	1.000000000 	0.000000000 	3.587629752 	2.363892427	1.000000000 	0.000000000 	1.000000000 	0.000000000 
6.57950075	1.000000000 	0.000000000 	3.705194696 	2.172564633	1.000000000 	0.000000000 	1.000000000 	0.000000000 
6.579501833	1.000000000 	0.000000000 	3.543384791 	2.440835046	1.000000000 	0.000000000 	1.000000000 	0.000000000 
6.579502917	1.000000000 	0.000000000 	3.476556916 	2.532725097	1.000000000 	0.000000000 	1.000000000 	0.000000000 
6.579504	1.000000000 	0.000000000 	3.836834793 	1.921578753	1.000000000 	0.000000000 	1.000000000 	0.000000000 
6.579505083	1.000000000 	0.000000000 	3.798010232 	2.055423424	1.000000000 	0.000000000 	1.000000000 	0.000000000 
6.579506167	1.000000000 	0.000000000 	3.382639313 	2.64174815	1.000000000 	0.000000000 	1.000000000 	0.000000000 
6.57950725	1.000000000 	0.000000000 	3.532397863 	2.431852943	1.000000000 	0.000000000 	1.000000000 	0.000000000 
6.579508333	1.000000000 	0.000000000 	3.718996738 	2.176532404	1.000000000 	0.000000000 	1.000000000 	0.000000000 
6.579509417	1.000000000 	0.000000000 	3.611562629 	2.365082021	1.000000000 	0.000000000 	1.000000000 	0.000000000 
6.5795105	1.000000000 	0.000000000 	3.579625929 	2.413443493	1.000000000 	0.000000000 	1.000000000 	0.000000000 
6.579511583	1.000000000 	0.000000000 	3.650476751 	2.277073821	1.000000000 	0.000000000 	1.000000000 	0.000000000 
6.579512667	1.000000000 	0.000000000 	3.587408346 	2.340339008	1.000000000 	0.000000000 	1.000000000 	0.000000000 
6.57951375	1.000000000 	0.000000000 	3.628135904 	2.276694532	1.000000000 	0.000000000 	1.000000000 	0.000000000 
6.579514833	1.000000000 	0.000000000 	3.583171674 	2.319910696	1.000000000 	0.000000000 	1.000000000 	0.000000000 
6.579515917	1.000000000 	0.000000000 	3.615094853 	2.358895839	1.000000000 	0.000000000 	1.000000000 	0.000000000 
6.579517	1.000000000 	0.000000000 	3.744949218 	2.149015463	1.000000000 	0.000000000 	1.000000000 	0.000000000 
6.579518083	1.000000000 	0.000000000 	3.467253883 	2.479279009	1.000000000 	0.000000000 	1.000000000 	0.000000000 
6.579519167	1.000000000 	0.000000000 	3.520954688 	2.482379306	1.000000000 	0.000000000 	1.000000000 	0.000000000 
6.57952025	1.000000000 	0.000000000 	3.678031853 	2.186700797	1.000000000 	0.000000000 	1.000000000 	0.000000000 
6.579521333	1.000000000 	0.000000000 	3.861243421 	2.006196133	1.000000000 	0.000000000 	1.000000000 	0.000000000 
6.579522417	1.000000000 	0.000000000 	3.664702522 	2.210569209	1.000000000 	0.000000000 	1.000000000 	0.000000000 
6.5795235	1.000000000 	0.000000000 	3.494141599 	2.46245376	1.000000000 	0.000000000 	1.000000000 	0.000000000 
6.579524583	1.000000000 	0.000000000 	3.517704904 	2.412618728	1.000000000 	0.000000000 	1.000000000 	0.000000000 
6.579525667	1.000000000 	0.000000000 	3.638266648 	2.261426236	1.000000000 	0.000000000 	1.000000000 	0.000000000 
6.57952675	1.000000000 	0.000000000 	3.895989583 	1.779785468	1.000000000 	0.000000000 	1.000000000 	0.000000000 
6.579527833	1.000000000 	0.000000000 	3.626279759 	2.27706411	1.000000000 	0.000000000 	1.000000000 	0.000000000 
6.579528917	1.000000000 	0.000000000 	3.311400217 	2.73027903	1.000000000 	0.000000000 	1.000000000 	0.000000000 
6.57953	1.000000000 	0.000000000 	3.565317737 	2.345364858	1.000000000 	0.000000000 	1.000000000 	0.000000000 
6.579531083	1.000000000 	0.000000000 	3.681493856 	2.263100603	1.000000000 	0.000000000 	1.000000000 	0.000000000 
6.579532167	1.000000000 	0.000000000 	3.662973147 	2.296339149	1.000000000 	0.000000000 	1.000000000 	0.000000000 
6.57953325	1.000000000 	0.000000000 	3.766419451 	2.101779467	1.000000000 	0.000000000 	1.000000000 	0.000000000 
6.579534333	1.000000000 	0.000000000 	3.495019694 	2.495950728	1.000000000 	0.000000000 	1.000000000 	0.000000000 
6.579535417	1.000000000 	0.000000000 	3.578473286 	2.401548796	1.000000000 	0.000000000 	1.000000000 	0.000000000 
6.5795365	1.000000000 	0.000000000 	3.744054880 	2.159330945	1.000000000 	0.000000000 	1.000000000 	0.000000000 
6.579537583	1.000000000 	0.000000000 	3.357144142 	2.660241295	1.000000000 	0.000000000 	1.000000000 	0.000000000 
6.579538667	1.000000000 	0.000000000 	3.511600041 	2.43540579	1.000000000 	0.000000000 	1.000000000 	0.000000000 
6.57953975	1.000000000 	0.000000000 	3.797208755 	1.988992252	1.000000000 	0.000000000 	1.000000000 	0.000000000 
6.579540833	1.000000000 	0.000000000 	3.742351146 	2.124911226	1.000000000 	0.000000000 	1.000000000 	0.000000000 
6.579541917	1.000000000 	0.000000000 	3.714677509 	2.160821741	1.000000000 	0.000000000 	1.000000000 	0.000000000 
6.579543	1.000000000 	0.000000000 	3.605379351 	2.28361285	1.000000000 	0.000000000 	1.000000000 	0.000000000 
6.579544083	1.000000000 	0.000000000 	3.521058748 	2.43816711	1.000000000 	0.000000000 	1.000000000 	0.000000000 
6.579545167	1.000000000 	0.000000000 	3.453343016 	2.566526357	1.000000000 	0.000000000 	1.000000000 	0.000000000 
6.57954625	1.000000000 	0.000000000 	3.677051526 	2.270839444	1.000000000 	0.000000000 	1.000000000 	0.000000000 
6.579547333	1.000000000 	0.000000000 	3.770271343 	2.095418823	1.000000000 	0.000000000 	1.000000000 	0.000000000 
6.579548417	1.000000000 	0.000000000 	3.751604861 	2.149772524	1.000000000 	0.000000000 	1.000000000 	0.000000000 
6.5795495	1.000000000 	0.000000000 	3.592803981 	2.295771269	1.000000000 	0.000000000 	1.000000000 	0.000000000 
6.579550583	1.000000000 	0.000000000 	3.655009914 	2.272396986	1.000000000 	0.000000000 	1.000000000 	0.000000000 
6.579551667	1.000000000 	0.000000000 	3.517898680 	2.464151842	1.000000000 	0.000000000 	1.000000000 	0.000000000 
6.57955275	1.000000000 	0.000000000 	3.568025806 	2.347600271	1.000000000 	0.000000000 	1.000000000 	0.000000000 
6.579553833	1.000000000 	0.000000000 	3.885304428 	1.809741905	1.000000000 	0.000000000 	1.000000000 	0.000000000 
6.579554917	1.000000000 	0.000000000 	3.434116870 	2.545885757	1.000000000 	0.000000000 	1.000000000 	0.000000000 
6.579556	1.000000000 	0.000000000 	3.527111617 	2.508624499	1.000000000 	0.000000000 	1.000000000 	0.000000000 
6.579557083	1.000000000 	0.000000000 	3.528312584 	2.367531947	1.000000000 	0.000000000 	1.000000000 	0.000000000 
6.579558167	1.000000000 	0.000000000 	3.569509574 	2.308561633	1.000000000 	0.000000000 	1.000000000 	0.000000000 
6.57955925	1.000000000 	0.000000000 	3.790033782 	2.039642121	1.000000000 	0.000000000 	1.000000000 	0.000000000 
6.579560333	1.000000000 	0.000000000 	3.586316228 	2.289126401	1.000000000 	0.000000000 	1.000000000 	0.000000000 
6.579561417	1.000000000 	0.000000000 	3.584452891 	2.341101991	1.000000000 	0.000000000 	1.000000000 	0.000000000 
6.5795625	1.000000000 	0.000000000 	3.433985476 	2.599996202	1.000000000 	0.000000000 	1.000000000 	0.000000000 
6.579563583	1.000000000 	0.000000000 	3.511907488 	2.413408362	1.000000000 	0.000000000 	1.000000000 	0.000000000 
6.579564667	1.000000000 	0.000000000 	3.721845062 	2.16765209	1.000000000 	0.000000000 	1.000000000 	0.000000000 
6.57956575	1.000000000 	0.000000000 	3.759028612 	2.092338413	1.000000000 	0.000000000 	1.000000000 	0.000000000 
6.579566833	1.000000000 	0.000000000 	3.712434928 	2.169237288	1.000000000 	0.000000000 	1.000000000 	0.000000000 
6.579567917	1.000000000 	0.000000000 	3.635041048 	2.299199049	1.000000000 	0.000000000 	1.000000000 	0.000000000 
6.579569	1.000000000 	0.000000000 	3.616690924 	2.32891614	1.000000000 	0.000000000 	1.000000000 	0.000000000 
6.579570083	1.000000000 	0.000000000 	3.505390918 	2.552770302	1.000000000 	0.000000000 	1.000000000 	0.000000000 
6.579571167	1.000000000 	0.000000000 	3.456888924 	2.539870954	1.000000000 	0.000000000 	1.000000000 	0.000000000 
6.57957225	1.000000000 	0.000000000 	3.732525103 	2.160453382	1.000000000 	0.000000000 	1.000000000 	0.000000000 
6.579573333	1.000000000 	0.000000000 	3.658333169 	2.261706219	1.000000000 	0.000000000 	1.000000000 	0.000000000 
6.579574417	1.000000000 	0.000000000 	3.615554433 	2.263754201	1.000000000 	0.000000000 	1.000000000 	0.000000000 
6.5795755	1.000000000 	0.000000000 	3.628121435 	2.264610789	1.000000000 	0.000000000 	1.000000000 	0.000000000 
6.579576583	1.000000000 	0.000000000 	3.515434473 	2.501779077	1.000000000 	0.000000000 	1.000000000 	0.000000000 
6.579577667	1.000000000 	0.000000000 	3.549928180 	2.336789363	1.000000000 	0.000000000 	1.000000000 	0.000000000 
6.57957875	1.000000000 	0.000000000 	3.509402107 	2.52047189	1.000000000 	0.000000000 	1.000000000 	0.000000000 
6.579579833	1.000000000 	0.000000000 	3.596727706 	2.347963629	1.000000000 	0.000000000 	1.000000000 	0.000000000 
6.579580917	1.000000000 	0.000000000 	3.865467269 	1.906177551	1.000000000 	0.000000000 	1.000000000 	0.000000000 
6.579582	1.000000000 	0.000000000 	3.783705680 	2.028028406	1.000000000 	0.000000000 	1.000000000 	0.000000000 
6.579583083	1.000000000 	0.000000000 	3.596124483 	2.332119676	1.000000000 	0.000000000 	1.000000000 	0.000000000 
6.579584167	1.000000000 	0.000000000 	3.679358855 	2.210613858	1.000000000 	0.000000000 	1.000000000 	0.000000000 
6.57958525	1.000000000 	0.000000000 	3.654499660 	2.202666702	1.000000000 	0.000000000 	1.000000000 	0.000000000 
6.579586333	1.000000000 	0.000000000 	3.379343754 	2.67951315	1.000000000 	0.000000000 	1.000000000 	0.000000000 
6.579587417	1.000000000 	0.000000000 	3.431048745 	2.554007582	1.000000000 	0.000000000 	1.000000000 	0.000000000 
