! FREQ.GHZ	S11RE	S11IM	S21RE	S21IM	S12RE	S12IM	S22RE	S22IM
6.578	1.000000000 	0.000000000 	2.401789768 	0.519006689 	1.000000000 	0.000000000 	1.000000000 	0.000000000 
6.578001667	1.000000000 	0.000000000 	2.434451544 	0.354792837 	1.000000000 	0.000000000 	1.000000000 	0.000000000 
6.578003333	1.000000000 	0.000000000 	2.438755110 	0.296268265 	1.000000000 	0.000000000 	1.000000000 	0.000000000 
6.578005	1.000000000 	0.000000000 	2.419756929 	0.432170704 	1.000000000 	0.000000000 	1.000000000 	0.000000000 
6.578006667	1.000000000 	0.000000000 	2.437227668 	0.332873478 	1.000000000 	0.000000000 	1.000000000 	0.000000000 
6.578008333	1.000000000 	0.000000000 	2.432885636 	0.348885071 	1.000000000 	0.000000000 	1.000000000 	0.000000000 
6.57801	1.000000000 	0.000000000 	2.431447435 	0.369994621 	1.000000000 	0.000000000 	1.000000000 	0.000000000 
6.578011667	1.000000000 	0.000000000 	2.441047288 	0.284861266 	1.000000000 	0.000000000 	1.000000000 	0.000000000 
6.578013333	1.000000000 	0.000000000 	2.422211103 	0.410743187 	1.000000000 	0.000000000 	1.000000000 	0.000000000 
6.578015	1.000000000 	0.000000000 	2.435271839 	0.345082810 	1.000000000 	0.000000000 	1.000000000 	0.000000000 
6.578016667	1.000000000 	0.000000000 	2.435475545 	0.315704173 	1.000000000 	0.000000000 	1.000000000 	0.000000000 
6.578018333	1.000000000 	0.000000000 	2.425937777 	0.398922960 	1.000000000 	0.000000000 	1.000000000 	0.000000000 
6.57802	1.000000000 	0.000000000 	2.437727765 	0.316230454 	1.000000000 	0.000000000 	1.000000000 	0.000000000 
6.578021667	1.000000000 	0.000000000 	2.424948837 	0.393577696 	1.000000000 	0.000000000 	1.000000000 	0.000000000 
6.578023333	1.000000000 	0.000000000 	2.434313564 	0.351688925 	1.000000000 	0.000000000 	1.000000000 	0.000000000 
6.578025	1.000000000 	0.000000000 	2.439986683 	0.291296760 	1.000000000 	0.000000000 	1.000000000 	0.000000000 
6.578026667	1.000000000 	0.000000000 	2.422000726 	0.420325370 	1.000000000 	0.000000000 	1.000000000 	0.000000000 
6.578028333	1.000000000 	0.000000000 	2.436870236 	0.332715580 	1.000000000 	0.000000000 	1.000000000 	0.000000000 
6.57803	1.000000000 	0.000000000 	2.433829151 	0.340210710 	1.000000000 	0.000000000 	1.000000000 	0.000000000 
6.578031667	1.000000000 	0.000000000 	2.431916266 	0.365852946 	1.000000000 	0.000000000 	1.000000000 	0.000000000 
6.578033333	1.000000000 	0.000000000 	2.439093464 	0.294968543 	1.000000000 	0.000000000 	1.000000000 	0.000000000 
6.578035	1.000000000 	0.000000000 	2.423392735 	0.402053271 	1.000000000 	0.000000000 	1.000000000 	0.000000000 
6.578036667	1.000000000 	0.000000000 	2.435308659 	0.347476772 	1.000000000 	0.000000000 	1.000000000 	0.000000000 
6.578038333	1.000000000 	0.000000000 	2.434697206 	0.330242180 	1.000000000 	0.000000000 	1.000000000 	0.000000000 
6.57804	1.000000000 	0.000000000 	2.424078377 	0.405746025 	1.000000000 	0.000000000 	1.000000000 	0.000000000 
6.578041667	1.000000000 	0.000000000 	2.438537504 	0.309688228 	1.000000000 	0.000000000 	1.000000000 	0.000000000 
6.578043333	1.000000000 	0.000000000 	2.425160506 	0.396873661 	1.000000000 	0.000000000 	1.000000000 	0.000000000 
6.578045	1.000000000 	0.000000000 	2.435276563 	0.351343694 	1.000000000 	0.000000000 	1.000000000 	0.000000000 
6.578046667	1.000000000 	0.000000000 	2.441219059 	0.280815529 	1.000000000 	0.000000000 	1.000000000 	0.000000000 
6.578048333	1.000000000 	0.000000000 	2.422510811 	0.421589678 	1.000000000 	0.000000000 	1.000000000 	0.000000000 
6.57805	1.000000000 	0.000000000 	2.438617317 	0.324888341 	1.000000000 	0.000000000 	1.000000000 	0.000000000 
6.578051667	1.000000000 	0.000000000 	2.430420654 	0.357811281 	1.000000000 	0.000000000 	1.000000000 	0.000000000 
6.578053333	1.000000000 	0.000000000 	2.431084968 	0.374617939 	1.000000000 	0.000000000 	1.000000000 	0.000000000 
6.578055	1.000000000 	0.000000000 	2.440799089 	0.284901266 	1.000000000 	0.000000000 	1.000000000 	0.000000000 
6.578056667	1.000000000 	0.000000000 	2.422168956 	0.416058744 	1.000000000 	0.000000000 	1.000000000 	0.000000000 
6.578058333	1.000000000 	0.000000000 	2.435382014 	0.344745790 	1.000000000 	0.000000000 	1.000000000 	0.000000000 
6.57806	1.000000000 	0.000000000 	2.434837960 	0.327083955 	1.000000000 	0.000000000 	1.000000000 	0.000000000 
6.578061667	1.000000000 	0.000000000 	2.426605777 	0.398367638 	1.000000000 	0.000000000 	1.000000000 	0.000000000 
6.578063333	1.000000000 	0.000000000 	2.440328285 	0.303620043 	1.000000000 	0.000000000 	1.000000000 	0.000000000 
6.578065	1.000000000 	0.000000000 	2.427244304 	0.388964399 	1.000000000 	0.000000000 	1.000000000 	0.000000000 
6.578066667	1.000000000 	0.000000000 	2.435291515 	0.354163971 	1.000000000 	0.000000000 	1.000000000 	0.000000000 
6.578068333	1.000000000 	0.000000000 	2.439323983 	0.298073721 	1.000000000 	0.000000000 	1.000000000 	0.000000000 
6.57807	1.000000000 	0.000000000 	2.422900708 	0.416393305 	1.000000000 	0.000000000 	1.000000000 	0.000000000 
6.578071667	1.000000000 	0.000000000 	2.437309594 	0.330655296 	1.000000000 	0.000000000 	1.000000000 	0.000000000 
6.578073333	1.000000000 	0.000000000 	2.431677407 	0.352423292 	1.000000000 	0.000000000 	1.000000000 	0.000000000 
6.578075	1.000000000 	0.000000000 	2.432131893 	0.367806368 	1.000000000 	0.000000000 	1.000000000 	0.000000000 
6.578076667	1.000000000 	0.000000000 	2.439994853 	0.298743117 	1.000000000 	0.000000000 	1.000000000 	0.000000000 
6.578078333	1.000000000 	0.000000000 	2.423345651 	0.411987896 	1.000000000 	0.000000000 	1.000000000 	0.000000000 
6.57808	1.000000000 	0.000000000 	2.437347025 	0.341812839 	1.000000000 	0.000000000 	1.000000000 	0.000000000 
6.578081667	1.000000000 	0.000000000 	2.437133327 	0.320029773 	1.000000000 	0.000000000 	1.000000000 	0.000000000 
6.578083333	1.000000000 	0.000000000 	2.426984155 	0.397536067 	1.000000000 	0.000000000 	1.000000000 	0.000000000 
6.578085	1.000000000 	0.000000000 	2.439511390 	0.309314789 	1.000000000 	0.000000000 	1.000000000 	0.000000000 
6.578086667	1.000000000 	0.000000000 	2.425106259 	0.391208340 	1.000000000 	0.000000000 	1.000000000 	0.000000000 
6.578088333	1.000000000 	0.000000000 	2.433768462 	0.356309631 	1.000000000 	0.000000000 	1.000000000 	0.000000000 
6.57809	1.000000000 	0.000000000 	2.440423511 	0.284924503 	1.000000000 	0.000000000 	1.000000000 	0.000000000 
6.578091667	1.000000000 	0.000000000 	2.421878224 	0.421208773 	1.000000000 	0.000000000 	1.000000000 	0.000000000 
6.578093333	1.000000000 	0.000000000 	2.436767121 	0.334957195 	1.000000000 	0.000000000 	1.000000000 	0.000000000 
6.578095	1.000000000 	0.000000000 	2.432523114 	0.348894591 	1.000000000 	0.000000000 	1.000000000 	0.000000000 
6.578096667	1.000000000 	0.000000000 	2.431902183 	0.375920255 	1.000000000 	0.000000000 	1.000000000 	0.000000000 
6.578098333	1.000000000 	0.000000000 	2.440130194 	0.298734934 	1.000000000 	0.000000000 	1.000000000 	0.000000000 
6.5781	1.000000000 	0.000000000 	2.421659515 	0.420282313 	1.000000000 	0.000000000 	1.000000000 	0.000000000 
6.578101667	1.000000000 	0.000000000 	2.436365097 	0.345658087 	1.000000000 	0.000000000 	1.000000000 	0.000000000 
6.578103333	1.000000000 	0.000000000 	2.437538568 	0.311609741 	1.000000000 	0.000000000 	1.000000000 	0.000000000 
6.578105	1.000000000 	0.000000000 	2.425536532 	0.402850272 	1.000000000 	0.000000000 	1.000000000 	0.000000000 
6.578106667	1.000000000 	0.000000000 	2.438907040 	0.303955643 	1.000000000 	0.000000000 	1.000000000 	0.000000000 
6.578108333	1.000000000 	0.000000000 	2.427042947 	0.383028912 	1.000000000 	0.000000000 	1.000000000 	0.000000000 
6.57811	1.000000000 	0.000000000 	2.433537763 	0.359236025 	1.000000000 	0.000000000 	1.000000000 	0.000000000 
6.578111667	1.000000000 	0.000000000 	2.439994732 	0.288506172 	1.000000000 	0.000000000 	1.000000000 	0.000000000 
6.578113333	1.000000000 	0.000000000 	2.422141665 	0.416849405 	1.000000000 	0.000000000 	1.000000000 	0.000000000 
6.578115	1.000000000 	0.000000000 	2.437434626 	0.333795083 	1.000000000 	0.000000000 	1.000000000 	0.000000000 
6.578116667	1.000000000 	0.000000000 	2.431026608 	0.358012620 	1.000000000 	0.000000000 	1.000000000 	0.000000000 
6.578118333	1.000000000 	0.000000000 	2.431228162 	0.374628775 	1.000000000 	0.000000000 	1.000000000 	0.000000000 
6.57812	1.000000000 	0.000000000 	2.441326392 	0.285614744 	1.000000000 	0.000000000 	1.000000000 	0.000000000 
6.578121667	1.000000000 	0.000000000 	2.424960472 	0.395812818 	1.000000000 	0.000000000 	1.000000000 	0.000000000 
6.578123333	1.000000000 	0.000000000 	2.435192351 	0.345997396 	1.000000000 	0.000000000 	1.000000000 	0.000000000 
6.578125	1.000000000 	0.000000000 	2.435569229 	0.323781593 	1.000000000 	0.000000000 	1.000000000 	0.000000000 
6.578126667	1.000000000 	0.000000000 	2.425496378 	0.399769556 	1.000000000 	0.000000000 	1.000000000 	0.000000000 
6.578128333	1.000000000 	0.000000000 	2.438367687 	0.322191391 	1.000000000 	0.000000000 	1.000000000 	0.000000000 
6.57813	1.000000000 	0.000000000 	2.426766660 	0.387037846 	1.000000000 	0.000000000 	1.000000000 	0.000000000 
6.578131667	1.000000000 	0.000000000 	2.434492120 	0.354583988 	1.000000000 	0.000000000 	1.000000000 	0.000000000 
6.578133333	1.000000000 	0.000000000 	2.440303239 	0.294644625 	1.000000000 	0.000000000 	1.000000000 	0.000000000 
6.578135	1.000000000 	0.000000000 	2.423009232 	0.414699330 	1.000000000 	0.000000000 	1.000000000 	0.000000000 
6.578136667	1.000000000 	0.000000000 	2.437281338 	0.332438548 	1.000000000 	0.000000000 	1.000000000 	0.000000000 
6.578138333	1.000000000 	0.000000000 	2.431412127 	0.351386984 	1.000000000 	0.000000000 	1.000000000 	0.000000000 
6.57814	1.000000000 	0.000000000 	2.432862236 	0.360415277 	1.000000000 	0.000000000 	1.000000000 	0.000000000 
6.578141667	1.000000000 	0.000000000 	2.440558761 	0.284148995 	1.000000000 	0.000000000 	1.000000000 	0.000000000 
6.578143333	1.000000000 	0.000000000 	2.419392505 	0.428375984 	1.000000000 	0.000000000 	1.000000000 	0.000000000 
6.578145	1.000000000 	0.000000000 	2.435543870 	0.345574089 	1.000000000 	0.000000000 	1.000000000 	0.000000000 
6.578146667	1.000000000 	0.000000000 	2.438015315 	0.304659500 	1.000000000 	0.000000000 	1.000000000 	0.000000000 
6.578148333	1.000000000 	0.000000000 	2.425571206 	0.402375020 	1.000000000 	0.000000000 	1.000000000 	0.000000000 
6.57815	1.000000000 	0.000000000 	2.438932301 	0.314189353 	1.000000000 	0.000000000 	1.000000000 	0.000000000 
6.578151667	1.000000000 	0.000000000 	2.426386009 	0.388965517 	1.000000000 	0.000000000 	1.000000000 	0.000000000 
6.578153333	1.000000000 	0.000000000 	2.434644517 	0.358028109 	1.000000000 	0.000000000 	1.000000000 	0.000000000 
6.578155	1.000000000 	0.000000000 	2.440367940 	0.292047585 	1.000000000 	0.000000000 	1.000000000 	0.000000000 
6.578156667	1.000000000 	0.000000000 	2.421718564 	0.416707427 	1.000000000 	0.000000000 	1.000000000 	0.000000000 
6.578158333	1.000000000 	0.000000000 	2.437478654 	0.326366233 	1.000000000 	0.000000000 	1.000000000 	0.000000000 
6.57816	1.000000000 	0.000000000 	2.432478708 	0.348124635 	1.000000000 	0.000000000 	1.000000000 	0.000000000 
6.578161667	1.000000000 	0.000000000 	2.429045263 	0.385333776 	1.000000000 	0.000000000 	1.000000000 	0.000000000 
6.578163333	1.000000000 	0.000000000 	2.439561617 	0.296340139 	1.000000000 	0.000000000 	1.000000000 	0.000000000 
6.578165	1.000000000 	0.000000000 	2.423325899 	0.409476090 	1.000000000 	0.000000000 	1.000000000 	0.000000000 
6.578166667	1.000000000 	0.000000000 	2.435399782 	0.350115377 	1.000000000 	0.000000000 	1.000000000 	0.000000000 
6.578168333	1.000000000 	0.000000000 	2.436869623 	0.316265658 	1.000000000 	0.000000000 	1.000000000 	0.000000000 
6.57817	1.000000000 	0.000000000 	2.425825834 	0.405464947 	1.000000000 	0.000000000 	1.000000000 	0.000000000 
6.578171667	1.000000000 	0.000000000 	2.438744011 	0.309885323 	1.000000000 	0.000000000 	1.000000000 	0.000000000 
6.578173333	1.000000000 	0.000000000 	2.427678977 	0.378343702 	1.000000000 	0.000000000 	1.000000000 	0.000000000 
6.578175	1.000000000 	0.000000000 	2.434386964 	0.347626142 	1.000000000 	0.000000000 	1.000000000 	0.000000000 
6.578176667	1.000000000 	0.000000000 	2.439390823 	0.283794292 	1.000000000 	0.000000000 	1.000000000 	0.000000000 
6.578178333	1.000000000 	0.000000000 	2.421944328 	0.411666163 	1.000000000 	0.000000000 	1.000000000 	0.000000000 
6.57818	1.000000000 	0.000000000 	2.435689374 	0.336667111 	1.000000000 	0.000000000 	1.000000000 	0.000000000 
6.578181667	1.000000000 	0.000000000 	2.428599655 	0.368869354 	1.000000000 	0.000000000 	1.000000000 	0.000000000 
6.578183333	1.000000000 	0.000000000 	2.433112617 	0.364969844 	1.000000000 	0.000000000 	1.000000000 	0.000000000 
6.578185	1.000000000 	0.000000000 	2.442408010 	0.278297984 	1.000000000 	0.000000000 	1.000000000 	0.000000000 
6.578186667	1.000000000 	0.000000000 	2.420923853 	0.425748460 	1.000000000 	0.000000000 	1.000000000 	0.000000000 
6.578188333	1.000000000 	0.000000000 	2.434912638 	0.352169320 	1.000000000 	0.000000000 	1.000000000 	0.000000000 
6.57819	1.000000000 	0.000000000 	2.438179181 	0.305031568 	1.000000000 	0.000000000 	1.000000000 	0.000000000 
6.578191667	1.000000000 	0.000000000 	2.426466978 	0.393541402 	1.000000000 	0.000000000 	1.000000000 	0.000000000 
6.578193333	1.000000000 	0.000000000 	2.438677310 	0.312380773 	1.000000000 	0.000000000 	1.000000000 	0.000000000 
6.578195	1.000000000 	0.000000000 	2.424479069 	0.399048810 	1.000000000 	0.000000000 	1.000000000 	0.000000000 
6.578196667	1.000000000 	0.000000000 	2.434480048 	0.353176055 	1.000000000 	0.000000000 	1.000000000 	0.000000000 
6.578198333	1.000000000 	0.000000000 	2.440484012 	0.286931686 	1.000000000 	0.000000000 	1.000000000 	0.000000000 
6.5782	1.000000000 	0.000000000 	2.421538209 	0.421423402 	1.000000000 	0.000000000 	1.000000000 	0.000000000 
6.578201667	1.000000000 	0.000000000 	2.437273067 	0.333105377 	1.000000000 	0.000000000 	1.000000000 	0.000000000 
6.578203333	1.000000000 	0.000000000 	2.430878845 	0.363232447 	1.000000000 	0.000000000 	1.000000000 	0.000000000 
6.578205	1.000000000 	0.000000000 	2.431538273 	0.375843397 	1.000000000 	0.000000000 	1.000000000 	0.000000000 
6.578206667	1.000000000 	0.000000000 	2.442349165 	0.275085338 	1.000000000 	0.000000000 	1.000000000 	0.000000000 
6.578208333	1.000000000 	0.000000000 	2.423013250 	0.408570294 	1.000000000 	0.000000000 	1.000000000 	0.000000000 
6.57821	1.000000000 	0.000000000 	2.434732659 	0.351466958 	1.000000000 	0.000000000 	1.000000000 	0.000000000 
6.578211667	1.000000000 	0.000000000 	2.436916161 	0.308785292 	1.000000000 	0.000000000 	1.000000000 	0.000000000 
6.578213333	1.000000000 	0.000000000 	2.427182060 	0.394150055 	1.000000000 	0.000000000 	1.000000000 	0.000000000 
6.578215	1.000000000 	0.000000000 	2.437961407 	0.318960580 	1.000000000 	0.000000000 	1.000000000 	0.000000000 
6.578216667	1.000000000 	0.000000000 	2.423889916 	0.401275011 	1.000000000 	0.000000000 	1.000000000 	0.000000000 
6.578218333	1.000000000 	0.000000000 	2.434024333 	0.356901931 	1.000000000 	0.000000000 	1.000000000 	0.000000000 
6.57822	1.000000000 	0.000000000 	2.439122850 	0.297866829 	1.000000000 	0.000000000 	1.000000000 	0.000000000 
6.578221667	1.000000000 	0.000000000 	2.422521301 	0.418138758 	1.000000000 	0.000000000 	1.000000000 	0.000000000 
6.578223333	1.000000000 	0.000000000 	2.439514379 	0.317839188 	1.000000000 	0.000000000 	1.000000000 	0.000000000 
6.578225	1.000000000 	0.000000000 	2.430667121 	0.361871901 	1.000000000 	0.000000000 	1.000000000 	0.000000000 
6.578226667	1.000000000 	0.000000000 	2.432989980 	0.361098243 	1.000000000 	0.000000000 	1.000000000 	0.000000000 
6.578228333	1.000000000 	0.000000000 	2.442411607 	0.273840188 	1.000000000 	0.000000000 	1.000000000 	0.000000000 
6.57823	1.000000000 	0.000000000 	2.421443826 	0.417544687 	1.000000000 	0.000000000 	1.000000000 	0.000000000 
6.578231667	1.000000000 	0.000000000 	2.434455900 	0.351910900 	1.000000000 	0.000000000 	1.000000000 	0.000000000 
6.578233333	1.000000000 	0.000000000 	2.434469072 	0.328644801 	1.000000000 	0.000000000 	1.000000000 	0.000000000 
6.578235	1.000000000 	0.000000000 	2.425764518 	0.398606055 	1.000000000 	0.000000000 	1.000000000 	0.000000000 
6.578236667	1.000000000 	0.000000000 	2.439817662 	0.308103180 	1.000000000 	0.000000000 	1.000000000 	0.000000000 
6.578238333	1.000000000 	0.000000000 	2.427698030 	0.381961948 	1.000000000 	0.000000000 	1.000000000 	0.000000000 
6.57824	1.000000000 	0.000000000 	2.434947886 	0.355722072 	1.000000000 	0.000000000 	1.000000000 	0.000000000 
6.578241667	1.000000000 	0.000000000 	2.437512249 	0.312217738 	1.000000000 	0.000000000 	1.000000000 	0.000000000 
6.578243333	1.000000000 	0.000000000 	2.423777012 	0.409039571 	1.000000000 	0.000000000 	1.000000000 	0.000000000 
6.578245	1.000000000 	0.000000000 	2.440408643 	0.305794408 	1.000000000 	0.000000000 	1.000000000 	0.000000000 
6.578246667	1.000000000 	0.000000000 	2.432087428 	0.349123059 	1.000000000 	0.000000000 	1.000000000 	0.000000000 
6.578248333	1.000000000 	0.000000000 	2.431089229 	0.376050642 	1.000000000 	0.000000000 	1.000000000 	0.000000000 
6.57825	1.000000000 	0.000000000 	2.438985332 	0.301400267 	1.000000000 	0.000000000 	1.000000000 	0.000000000 
6.578251667	1.000000000 	0.000000000 	2.421834338 	0.417271463 	1.000000000 	0.000000000 	1.000000000 	0.000000000 
6.578253333	1.000000000 	0.000000000 	2.434157969 	0.350518529 	1.000000000 	0.000000000 	1.000000000 	0.000000000 
6.578255	1.000000000 	0.000000000 	2.435887614 	0.327175211 	1.000000000 	0.000000000 	1.000000000 	0.000000000 
6.578256667	1.000000000 	0.000000000 	2.426741877 	0.396083298 	1.000000000 	0.000000000 	1.000000000 	0.000000000 
6.578258333	1.000000000 	0.000000000 	2.439329890 	0.314648806 	1.000000000 	0.000000000 	1.000000000 	0.000000000 
6.57826	1.000000000 	0.000000000 	2.428056309 	0.380472601 	1.000000000 	0.000000000 	1.000000000 	0.000000000 
6.578261667	1.000000000 	0.000000000 	2.436387034 	0.342768010 	1.000000000 	0.000000000 	1.000000000 	0.000000000 
6.578263333	1.000000000 	0.000000000 	2.439517372 	0.297709232 	1.000000000 	0.000000000 	1.000000000 	0.000000000 
6.578265	1.000000000 	0.000000000 	2.423177786 	0.409636013 	1.000000000 	0.000000000 	1.000000000 	0.000000000 
6.578266667	1.000000000 	0.000000000 	2.436801076 	0.331281977 	1.000000000 	0.000000000 	1.000000000 	0.000000000 
6.578268333	1.000000000 	0.000000000 	2.428669417 	0.371166892 	1.000000000 	0.000000000 	1.000000000 	0.000000000 
6.57827	1.000000000 	0.000000000 	2.431545248 	0.372665989 	1.000000000 	0.000000000 	1.000000000 	0.000000000 
6.578271667	1.000000000 	0.000000000 	2.440598570 	0.290531083 	1.000000000 	0.000000000 	1.000000000 	0.000000000 
6.578273333	1.000000000 	0.000000000 	2.423016238 	0.416085340 	1.000000000 	0.000000000 	1.000000000 	0.000000000 
6.578275	1.000000000 	0.000000000 	2.436347880 	0.345456542 	1.000000000 	0.000000000 	1.000000000 	0.000000000 
6.578276667	1.000000000 	0.000000000 	2.437499658 	0.313598376 	1.000000000 	0.000000000 	1.000000000 	0.000000000 
6.578278333	1.000000000 	0.000000000 	2.429015396 	0.384207698 	1.000000000 	0.000000000 	1.000000000 	0.000000000 
6.57828	1.000000000 	0.000000000 	2.439845950 	0.304704833 	1.000000000 	0.000000000 	1.000000000 	0.000000000 
6.578281667	1.000000000 	0.000000000 	2.424596604 	0.395270581 	1.000000000 	0.000000000 	1.000000000 	0.000000000 
6.578283333	1.000000000 	0.000000000 	2.433659408 	0.354498603 	1.000000000 	0.000000000 	1.000000000 	0.000000000 
6.578285	1.000000000 	0.000000000 	2.437921603 	0.300623106 	1.000000000 	0.000000000 	1.000000000 	0.000000000 
6.578286667	1.000000000 	0.000000000 	2.421140524 	0.420237607 	1.000000000 	0.000000000 	1.000000000 	0.000000000 
