! FREQ.GHZ	S11RE	S11IM	S21RE	S21IM	S12RE	S12IM	S22RE	S22IM
6.5794	1.000000000 	0.000000000 	0.212910484	0.094879218	1.000000000 	0.000000000 	1.000000000 	0.000000000 
6.579401083	1.000000000 	0.000000000 	0.199837822	0.125608473	1.000000000 	0.000000000 	1.000000000 	0.000000000 
6.579402167	1.000000000 	0.000000000 	0.195396727	0.12663373	1.000000000 	0.000000000 	1.000000000 	0.000000000 
6.57940325	1.000000000 	0.000000000 	0.2039848	0.113167644	1.000000000 	0.000000000 	1.000000000 	0.000000000 
6.579404333	1.000000000 	0.000000000 	0.197647164	0.124942879	1.000000000 	0.000000000 	1.000000000 	0.000000000 
6.579405417	1.000000000 	0.000000000 	0.191096718	0.13339142	1.000000000 	0.000000000 	1.000000000 	0.000000000 
6.5794065	1.000000000 	0.000000000 	0.200016612	0.124734927	1.000000000 	0.000000000 	1.000000000 	0.000000000 
6.579407583	1.000000000 	0.000000000 	0.205436632	0.114788918	1.000000000 	0.000000000 	1.000000000 	0.000000000 
6.579408667	1.000000000 	0.000000000 	0.190259239	0.137145125	1.000000000 	0.000000000 	1.000000000 	0.000000000 
6.57940975	1.000000000 	0.000000000 	0.193602214	0.131824512	1.000000000 	0.000000000 	1.000000000 	0.000000000 
6.579410833	1.000000000 	0.000000000 	0.189832544	0.136472602	1.000000000 	0.000000000 	1.000000000 	0.000000000 
6.579411917	1.000000000 	0.000000000 	0.18873877	0.135243786	1.000000000 	0.000000000 	1.000000000 	0.000000000 
6.579413	1.000000000 	0.000000000 	0.197496325	0.12411361	1.000000000 	0.000000000 	1.000000000 	0.000000000 
6.579414083	1.000000000 	0.000000000 	0.19849891	0.122837919	1.000000000 	0.000000000 	1.000000000 	0.000000000 
6.579415167	1.000000000 	0.000000000 	0.211863068	0.098356573	1.000000000 	0.000000000 	1.000000000 	0.000000000 
6.57941625	1.000000000 	0.000000000 	0.198761008	0.120644603	1.000000000 	0.000000000 	1.000000000 	0.000000000 
6.579417333	1.000000000 	0.000000000 	0.195303837	0.131771829	1.000000000 	0.000000000 	1.000000000 	0.000000000 
6.579418417	1.000000000 	0.000000000 	0.207844026	0.108084845	1.000000000 	0.000000000 	1.000000000 	0.000000000 
6.5794195	1.000000000 	0.000000000 	0.196331351	0.127615598	1.000000000 	0.000000000 	1.000000000 	0.000000000 
6.579420583	1.000000000 	0.000000000 	0.190851678	0.135201756	1.000000000 	0.000000000 	1.000000000 	0.000000000 
6.579421667	1.000000000 	0.000000000 	0.186711556	0.13583653	1.000000000 	0.000000000 	1.000000000 	0.000000000 
6.57942275	1.000000000 	0.000000000 	0.19217118	0.131396289	1.000000000 	0.000000000 	1.000000000 	0.000000000 
6.579423833	1.000000000 	0.000000000 	0.202993008	0.116182699	1.000000000 	0.000000000 	1.000000000 	0.000000000 
6.579424917	1.000000000 	0.000000000 	0.197748265	0.122926714	1.000000000 	0.000000000 	1.000000000 	0.000000000 
6.579426	1.000000000 	0.000000000 	0.198221096	0.122143745	1.000000000 	0.000000000 	1.000000000 	0.000000000 
6.579427083	1.000000000 	0.000000000 	0.191549626	0.134925136	1.000000000 	0.000000000 	1.000000000 	0.000000000 
6.579428167	1.000000000 	0.000000000 	0.195543994	0.128277229	1.000000000 	0.000000000 	1.000000000 	0.000000000 
6.57942925	1.000000000 	0.000000000 	0.202212934	0.1151184	1.000000000 	0.000000000 	1.000000000 	0.000000000 
6.579430333	1.000000000 	0.000000000 	0.196714879	0.126729775	1.000000000 	0.000000000 	1.000000000 	0.000000000 
6.579431417	1.000000000 	0.000000000 	0.193536876	0.129852462	1.000000000 	0.000000000 	1.000000000 	0.000000000 
6.5794325	1.000000000 	0.000000000 	0.187398153	0.135128887	1.000000000 	0.000000000 	1.000000000 	0.000000000 
6.579433583	1.000000000 	0.000000000 	0.198361622	0.125457487	1.000000000 	0.000000000 	1.000000000 	0.000000000 
6.579434667	1.000000000 	0.000000000 	0.207953559	0.103830576	1.000000000 	0.000000000 	1.000000000 	0.000000000 
6.57943575	1.000000000 	0.000000000 	0.198582284	0.123139027	1.000000000 	0.000000000 	1.000000000 	0.000000000 
6.579436833	1.000000000 	0.000000000 	0.193034827	0.127438185	1.000000000 	0.000000000 	1.000000000 	0.000000000 
6.579437917	1.000000000 	0.000000000 	0.191744233	0.134707216	1.000000000 	0.000000000 	1.000000000 	0.000000000 
6.579439	1.000000000 	0.000000000 	0.195349848	0.126714491	1.000000000 	0.000000000 	1.000000000 	0.000000000 
6.579440083	1.000000000 	0.000000000 	0.200305369	0.117588944	1.000000000 	0.000000000 	1.000000000 	0.000000000 
6.579441167	1.000000000 	0.000000000 	0.181573461	0.147391417	1.000000000 	0.000000000 	1.000000000 	0.000000000 
6.57944225	1.000000000 	0.000000000 	0.194419243	0.132494549	1.000000000 	0.000000000 	1.000000000 	0.000000000 
6.579443333	1.000000000 	0.000000000 	0.206552269	0.109316595	1.000000000 	0.000000000 	1.000000000 	0.000000000 
6.579444417	1.000000000 	0.000000000 	0.19606726	0.127730317	1.000000000 	0.000000000 	1.000000000 	0.000000000 
6.5794455	1.000000000 	0.000000000 	0.190699849	0.13400663	1.000000000 	0.000000000 	1.000000000 	0.000000000 
6.579446583	1.000000000 	0.000000000 	0.207478407	0.106333327	1.000000000 	0.000000000 	1.000000000 	0.000000000 
6.579447667	1.000000000 	0.000000000 	0.202205755	0.113475789	1.000000000 	0.000000000 	1.000000000 	0.000000000 
6.57944875	1.000000000 	0.000000000 	0.191236806	0.132522041	1.000000000 	0.000000000 	1.000000000 	0.000000000 
6.579449833	1.000000000 	0.000000000 	0.202782063	0.11286206	1.000000000 	0.000000000 	1.000000000 	0.000000000 
6.579450917	1.000000000 	0.000000000 	0.194285885	0.131737913	1.000000000 	0.000000000 	1.000000000 	0.000000000 
6.579452	1.000000000 	0.000000000 	0.184581286	0.14437802	1.000000000 	0.000000000 	1.000000000 	0.000000000 
6.579453083	1.000000000 	0.000000000 	0.20305731	0.116225252	1.000000000 	0.000000000 	1.000000000 	0.000000000 
6.579454167	1.000000000 	0.000000000 	0.20308353	0.112073219	1.000000000 	0.000000000 	1.000000000 	0.000000000 
6.57945525	1.000000000 	0.000000000 	0.198490834	0.123884023	1.000000000 	0.000000000 	1.000000000 	0.000000000 
6.579456333	1.000000000 	0.000000000 	0.199831036	0.115606656	1.000000000 	0.000000000 	1.000000000 	0.000000000 
6.579457417	1.000000000 	0.000000000 	0.197606254	0.123695843	1.000000000 	0.000000000 	1.000000000 	0.000000000 
6.5794585	1.000000000 	0.000000000 	0.18862665	0.138710048	1.000000000 	0.000000000 	1.000000000 	0.000000000 
6.579459583	1.000000000 	0.000000000 	0.198138383	0.121009831	1.000000000 	0.000000000 	1.000000000 	0.000000000 
6.579460667	1.000000000 	0.000000000 	0.19031254	0.133938973	1.000000000 	0.000000000 	1.000000000 	0.000000000 
6.57946175	1.000000000 	0.000000000 	0.193559019	0.131777201	1.000000000 	0.000000000 	1.000000000 	0.000000000 
6.579462833	1.000000000 	0.000000000 	0.203323627	0.114397007	1.000000000 	0.000000000 	1.000000000 	0.000000000 
6.579463917	1.000000000 	0.000000000 	0.192873877	0.129268367	1.000000000 	0.000000000 	1.000000000 	0.000000000 
6.579465	1.000000000 	0.000000000 	0.195306185	0.129523254	1.000000000 	0.000000000 	1.000000000 	0.000000000 
6.579466083	1.000000000 	0.000000000 	0.201528705	0.113010401	1.000000000 	0.000000000 	1.000000000 	0.000000000 
6.579467167	1.000000000 	0.000000000 	0.200375418	0.12005264	1.000000000 	0.000000000 	1.000000000 	0.000000000 
6.57946825	1.000000000 	0.000000000 	0.185886172	0.142377881	1.000000000 	0.000000000 	1.000000000 	0.000000000 
6.579469333	1.000000000 	0.000000000 	0.201939124	0.118717929	1.000000000 	0.000000000 	1.000000000 	0.000000000 
6.579470417	1.000000000 	0.000000000 	0.203287041	0.112217486	1.000000000 	0.000000000 	1.000000000 	0.000000000 
6.5794715	1.000000000 	0.000000000 	0.199673631	0.121119431	1.000000000 	0.000000000 	1.000000000 	0.000000000 
6.579472583	1.000000000 	0.000000000 	0.192332079	0.127862491	1.000000000 	0.000000000 	1.000000000 	0.000000000 
6.579473667	1.000000000 	0.000000000 	0.190087744	0.133598047	1.000000000 	0.000000000 	1.000000000 	0.000000000 
6.57947475	1.000000000 	0.000000000 	0.19162656	0.129441444	1.000000000 	0.000000000 	1.000000000 	0.000000000 
6.579475833	1.000000000 	0.000000000 	0.184179717	0.143616796	1.000000000 	0.000000000 	1.000000000 	0.000000000 
6.579476917	1.000000000 	0.000000000 	0.200566491	0.11785844	1.000000000 	0.000000000 	1.000000000 	0.000000000 
6.579478	1.000000000 	0.000000000 	0.202320337	0.120203906	1.000000000 	0.000000000 	1.000000000 	0.000000000 
6.579479083	1.000000000 	0.000000000 	0.191109969	0.130591434	1.000000000 	0.000000000 	1.000000000 	0.000000000 
6.579480167	1.000000000 	0.000000000 	0.206893027	0.110042273	1.000000000 	0.000000000 	1.000000000 	0.000000000 
6.57948125	1.000000000 	0.000000000 	0.199865891	0.118770983	1.000000000 	0.000000000 	1.000000000 	0.000000000 
6.579482333	1.000000000 	0.000000000 	0.195918614	0.128780405	1.000000000 	0.000000000 	1.000000000 	0.000000000 
6.579483417	1.000000000 	0.000000000 	0.197567638	0.127082617	1.000000000 	0.000000000 	1.000000000 	0.000000000 
6.5794845	1.000000000 	0.000000000 	0.19634012	0.126398418	1.000000000 	0.000000000 	1.000000000 	0.000000000 
6.579485583	1.000000000 	0.000000000 	0.196664147	0.125849843	1.000000000 	0.000000000 	1.000000000 	0.000000000 
6.579486667	1.000000000 	0.000000000 	0.198257826	0.120762715	1.000000000 	0.000000000 	1.000000000 	0.000000000 
6.57948775	1.000000000 	0.000000000 	0.202337066	0.112907122	1.000000000 	0.000000000 	1.000000000 	0.000000000 
6.579488833	1.000000000 	0.000000000 	0.197474737	0.125682132	1.000000000 	0.000000000 	1.000000000 	0.000000000 
6.579489917	1.000000000 	0.000000000 	0.194632335	0.130968896	1.000000000 	0.000000000 	1.000000000 	0.000000000 
6.579491	1.000000000 	0.000000000 	0.206576722	0.113160328	1.000000000 	0.000000000 	1.000000000 	0.000000000 
6.579492083	1.000000000 	0.000000000 	0.189763035	0.135727882	1.000000000 	0.000000000 	1.000000000 	0.000000000 
6.579493167	1.000000000 	0.000000000 	0.176767855	0.149448178	1.000000000 	0.000000000 	1.000000000 	0.000000000 
6.57949425	1.000000000 	0.000000000 	0.201293053	0.117849273	1.000000000 	0.000000000 	1.000000000 	0.000000000 
6.579495333	1.000000000 	0.000000000 	0.199350833	0.125151713	1.000000000 	0.000000000 	1.000000000 	0.000000000 
6.579496417	1.000000000 	0.000000000 	0.187923367	0.137002843	1.000000000 	0.000000000 	1.000000000 	0.000000000 
6.5794975	1.000000000 	0.000000000 	0.208446488	0.111434201	1.000000000 	0.000000000 	1.000000000 	0.000000000 
6.579498583	1.000000000 	0.000000000 	0.203036019	0.113107851	1.000000000 	0.000000000 	1.000000000 	0.000000000 
6.579499667	1.000000000 	0.000000000 	0.194355883	0.128061264	1.000000000 	0.000000000 	1.000000000 	0.000000000 
6.57950075	1.000000000 	0.000000000 	0.200839837	0.117763724	1.000000000 	0.000000000 	1.000000000 	0.000000000 
6.579501833	1.000000000 	0.000000000 	0.191397216	0.131842591	1.000000000 	0.000000000 	1.000000000 	0.000000000 
6.579502917	1.000000000 	0.000000000 	0.187910371	0.136895591	1.000000000 	0.000000000 	1.000000000 	0.000000000 
6.579504	1.000000000 	0.000000000 	0.208367738	0.104355553	1.000000000 	0.000000000 	1.000000000 	0.000000000 
6.579505083	1.000000000 	0.000000000 	0.203650514	0.110212456	1.000000000 	0.000000000 	1.000000000 	0.000000000 
6.579506167	1.000000000 	0.000000000 	0.183628698	0.143408957	1.000000000 	0.000000000 	1.000000000 	0.000000000 
6.57950725	1.000000000 	0.000000000 	0.192064329	0.132225254	1.000000000 	0.000000000 	1.000000000 	0.000000000 
6.579508333	1.000000000 	0.000000000 	0.200288166	0.117218087	1.000000000 	0.000000000 	1.000000000 	0.000000000 
6.579509417	1.000000000 	0.000000000 	0.193784574	0.126902523	1.000000000 	0.000000000 	1.000000000 	0.000000000 
6.5795105	1.000000000 	0.000000000 	0.192056181	0.12948748	1.000000000 	0.000000000 	1.000000000 	0.000000000 
6.579511583	1.000000000 	0.000000000 	0.197205323	0.123011625	1.000000000 	0.000000000 	1.000000000 	0.000000000 
6.579512667	1.000000000 	0.000000000 	0.195534413	0.127561953	1.000000000 	0.000000000 	1.000000000 	0.000000000 
6.57951375	1.000000000 	0.000000000 	0.197754054	0.124092808	1.000000000 	0.000000000 	1.000000000 	0.000000000 
6.579514833	1.000000000 	0.000000000 	0.196649528	0.127319979	1.000000000 	0.000000000 	1.000000000 	0.000000000 
6.579515917	1.000000000 	0.000000000 	0.194012589	0.126595707	1.000000000 	0.000000000 	1.000000000 	0.000000000 
6.579517	1.000000000 	0.000000000 	0.20087791	0.11527252	1.000000000 	0.000000000 	1.000000000 	0.000000000 
6.579518083	1.000000000 	0.000000000 	0.190836926	0.136458997	1.000000000 	0.000000000 	1.000000000 	0.000000000 
6.579519167	1.000000000 	0.000000000 	0.18971347	0.133753721	1.000000000 	0.000000000 	1.000000000 	0.000000000 
6.57952025	1.000000000 	0.000000000 	0.200880201	0.119429334	1.000000000 	0.000000000 	1.000000000 	0.000000000 
6.579521333	1.000000000 	0.000000000 	0.203931477	0.1059572	1.000000000 	0.000000000 	1.000000000 	0.000000000 
6.579522417	1.000000000 	0.000000000 	0.200074815	0.120686256	1.000000000 	0.000000000 	1.000000000 	0.000000000 
6.5795235	1.000000000 	0.000000000 	0.191221923	0.134761322	1.000000000 	0.000000000 	1.000000000 	0.000000000 
6.579524583	1.000000000 	0.000000000 	0.193333848	0.132598065	1.000000000 	0.000000000 	1.000000000 	0.000000000 
6.579525667	1.000000000 	0.000000000 	0.198259503	0.123231551	1.000000000 	0.000000000 	1.000000000 	0.000000000 
6.57952675	1.000000000 	0.000000000 	0.212357504	0.097010218	1.000000000 	0.000000000 	1.000000000 	0.000000000 
6.579527833	1.000000000 	0.000000000 	0.197779898	0.124192709	1.000000000 	0.000000000 	1.000000000 	0.000000000 
6.579528917	1.000000000 	0.000000000 	0.179774	0.148225267	1.000000000 	0.000000000 	1.000000000 	0.000000000 
6.57953	1.000000000 	0.000000000 	0.195765063	0.128779686	1.000000000 	0.000000000 	1.000000000 	0.000000000 
6.579531083	1.000000000 	0.000000000 	0.197134653	0.121183294	1.000000000 	0.000000000 	1.000000000 	0.000000000 
6.579532167	1.000000000 	0.000000000 	0.195979999	0.122861	1.000000000 	0.000000000 	1.000000000 	0.000000000 
6.57953325	1.000000000 	0.000000000 	0.202458743	0.11297829	1.000000000 	0.000000000 	1.000000000 	0.000000000 
6.579534333	1.000000000 	0.000000000 	0.189484004	0.135319048	1.000000000 	0.000000000 	1.000000000 	0.000000000 
6.579535417	1.000000000 	0.000000000 	0.192671678	0.129303868	1.000000000 	0.000000000 	1.000000000 	0.000000000 
6.5795365	1.000000000 	0.000000000 	0.200424153	0.115591809	1.000000000 	0.000000000 	1.000000000 	0.000000000 
6.579537583	1.000000000 	0.000000000 	0.182977552	0.144993608	1.000000000 	0.000000000 	1.000000000 	0.000000000 
6.579538667	1.000000000 	0.000000000 	0.192284357	0.133355289	1.000000000 	0.000000000 	1.000000000 	0.000000000 
6.57953975	1.000000000 	0.000000000 	0.206652115	0.108245157	1.000000000 	0.000000000 	1.000000000 	0.000000000 
6.579540833	1.000000000 	0.000000000 	0.202065997	0.114733303	1.000000000 	0.000000000 	1.000000000 	0.000000000 
6.579541917	1.000000000 	0.000000000 	0.201141521	0.117003689	1.000000000 	0.000000000 	1.000000000 	0.000000000 
6.579543	1.000000000 	0.000000000 	0.197949327	0.125379213	1.000000000 	0.000000000 	1.000000000 	0.000000000 
6.579544083	1.000000000 	0.000000000 	0.191961627	0.132924373	1.000000000 	0.000000000 	1.000000000 	0.000000000 
6.579545167	1.000000000 	0.000000000 	0.186539783	0.138636466	1.000000000 	0.000000000 	1.000000000 	0.000000000 
6.57954625	1.000000000 	0.000000000 	0.196871494	0.121582075	1.000000000 	0.000000000 	1.000000000 	0.000000000 
6.579547333	1.000000000 	0.000000000 	0.202640377	0.112622255	1.000000000 	0.000000000 	1.000000000 	0.000000000 
6.579548417	1.000000000 	0.000000000 	0.200662849	0.114985319	1.000000000 	0.000000000 	1.000000000 	0.000000000 
6.5795495	1.000000000 	0.000000000 	0.19763696	0.126288341	1.000000000 	0.000000000 	1.000000000 	0.000000000 
6.579550583	1.000000000 	0.000000000 	0.197324003	0.122680507	1.000000000 	0.000000000 	1.000000000 	0.000000000 
6.579551667	1.000000000 	0.000000000 	0.190696248	0.13357534	1.000000000 	0.000000000 	1.000000000 	0.000000000 
6.57955275	1.000000000 	0.000000000 	0.195593626	0.128691796	1.000000000 	0.000000000 	1.000000000 	0.000000000 
6.579553833	1.000000000 	0.000000000 	0.211493984	0.098512107	1.000000000 	0.000000000 	1.000000000 	0.000000000 
6.579554917	1.000000000 	0.000000000 	0.187916529	0.139312095	1.000000000 	0.000000000 	1.000000000 	0.000000000 
6.579556	1.000000000 	0.000000000 	0.188276161	0.133909624	1.000000000 	0.000000000 	1.000000000 	0.000000000 
6.579557083	1.000000000 	0.000000000 	0.195428938	0.131134712	1.000000000 	0.000000000 	1.000000000 	0.000000000 
6.579558167	1.000000000 	0.000000000 	0.197528534	0.127750545	1.000000000 	0.000000000 	1.000000000 	0.000000000 
6.57955925	1.000000000 	0.000000000 	0.204595783	0.110105134	1.000000000 	0.000000000 	1.000000000 	0.000000000 
6.579560333	1.000000000 	0.000000000 	0.198119712	0.126458749	1.000000000 	0.000000000 	1.000000000 	0.000000000 
6.579561417	1.000000000 	0.000000000 	0.195561184	0.127726237	1.000000000 	0.000000000 	1.000000000 	0.000000000 
6.5795625	1.000000000 	0.000000000 	0.185098194	0.140144624	1.000000000 	0.000000000 	1.000000000 	0.000000000 
6.579563583	1.000000000 	0.000000000 	0.193407913	0.132911324	1.000000000 	0.000000000 	1.000000000 	0.000000000 
6.579564667	1.000000000 	0.000000000 	0.200629395	0.116849229	1.000000000 	0.000000000 	1.000000000 	0.000000000 
6.57956575	1.000000000 	0.000000000 	0.203100975	0.113049411	1.000000000 	0.000000000 	1.000000000 	0.000000000 
6.579566833	1.000000000 	0.000000000 	0.200804977	0.117333678	1.000000000 	0.000000000 	1.000000000 	0.000000000 
6.579567917	1.000000000 	0.000000000 	0.196490408	0.124282107	1.000000000 	0.000000000 	1.000000000 	0.000000000 
6.579569	1.000000000 	0.000000000 	0.195451339	0.125858081	1.000000000 	0.000000000 	1.000000000 	0.000000000 
6.579570083	1.000000000 	0.000000000 	0.186413318	0.13575387	1.000000000 	0.000000000 	1.000000000 	0.000000000 
6.579571167	1.000000000 	0.000000000 	0.187863928	0.138028772	1.000000000 	0.000000000 	1.000000000 	0.000000000 
6.57957225	1.000000000 	0.000000000 	0.200680919	0.116157764	1.000000000 	0.000000000 	1.000000000 	0.000000000 
6.579573333	1.000000000 	0.000000000 	0.197761458	0.122262872	1.000000000 	0.000000000 	1.000000000 	0.000000000 
6.579574417	1.000000000 	0.000000000 	0.198691587	0.124403856	1.000000000 	0.000000000 	1.000000000 	0.000000000 
6.5795755	1.000000000 	0.000000000 	0.198347668	0.123805192	1.000000000 	0.000000000 	1.000000000 	0.000000000 
6.579576583	1.000000000 	0.000000000 	0.188827461	0.134380144	1.000000000 	0.000000000 	1.000000000 	0.000000000 
6.579577667	1.000000000 	0.000000000 	0.196535004	0.129371887	1.000000000 	0.000000000 	1.000000000 	0.000000000 
6.57957875	1.000000000 	0.000000000 	0.187983392	0.135010706	1.000000000 	0.000000000 	1.000000000 	0.000000000 
6.579579833	1.000000000 	0.000000000 	0.194951106	0.127265155	1.000000000 	0.000000000 	1.000000000 	0.000000000 
6.579580917	1.000000000 	0.000000000 	0.208096604	0.102618661	1.000000000 	0.000000000 	1.000000000 	0.000000000 
6.579582	1.000000000 	0.000000000 	0.205308935	0.110043536	1.000000000 	0.000000000 	1.000000000 	0.000000000 
6.579583083	1.000000000 	0.000000000 	0.195751202	0.126946448	1.000000000 	0.000000000 	1.000000000 	0.000000000 
6.579584167	1.000000000 	0.000000000 	0.199699303	0.11998233	1.000000000 	0.000000000 	1.000000000 	0.000000000 
6.57958525	1.000000000 	0.000000000 	0.20071829	0.120978392	1.000000000 	0.000000000 	1.000000000 	0.000000000 
6.579586333	1.000000000 	0.000000000 	0.181687542	0.144061745	1.000000000 	0.000000000 	1.000000000 	0.000000000 
6.579587417	1.000000000 	0.000000000 	0.187539728	0.139601015	1.000000000 	0.000000000 	1.000000000 	0.000000000 
6.5795885	1.000000000 	0.000000000 	0.2096878	0.099220213	1.000000000 	0.000000000 	1.000000000 	0.000000000 
6.579589583	1.000000000 	0.000000000 	0.200274995	0.117280501	1.000000000 	0.000000000 	1.000000000 	0.000000000 
