! 8/8/2012 3:06:23 PM								
! C:\SONG\2012\2012.08.08@275MK S21 NIST P=-90DBM 4AMP P1E.S2P								
! CHANNEL.1								
! TR.MEASUREMENT								
! RAW.DATA								
# GHZ S RI R 50.0								
! FREQ.GHZ	S11RE	S11IM	S21RE	S21IM	S12RE	S12IM	S22RE	S22IM
5.922000000 	1.000000000 	0.000000000 	1.473788000 	-1.447411000 	1.000000000 	0.000000000 	1.000000000 	0.000000000 
5.922001000 	1.000000000 	0.000000000 	1.470802000 	-1.448592000 	1.000000000 	0.000000000 	1.000000000 	0.000000000 
5.922002000 	1.000000000 	0.000000000 	1.471665000 	-1.452746000 	1.000000000 	0.000000000 	1.000000000 	0.000000000 
5.922003000 	1.000000000 	0.000000000 	1.471807000 	-1.451364000 	1.000000000 	0.000000000 	1.000000000 	0.000000000 
5.922004000 	1.000000000 	0.000000000 	1.475433000 	-1.448595000 	1.000000000 	0.000000000 	1.000000000 	0.000000000 
5.922005000 	1.000000000 	0.000000000 	1.470972000 	-1.452137000 	1.000000000 	0.000000000 	1.000000000 	0.000000000 
5.922006000 	1.000000000 	0.000000000 	1.474937000 	-1.451556000 	1.000000000 	0.000000000 	1.000000000 	0.000000000 
5.922007000 	1.000000000 	0.000000000 	1.471390000 	-1.451721000 	1.000000000 	0.000000000 	1.000000000 	0.000000000 
5.922008000 	1.000000000 	0.000000000 	1.472103000 	-1.451352000 	1.000000000 	0.000000000 	1.000000000 	0.000000000 
5.922009000 	1.000000000 	0.000000000 	1.471118000 	-1.449963000 	1.000000000 	0.000000000 	1.000000000 	0.000000000 
5.922010000 	1.000000000 	0.000000000 	1.469866000 	-1.451448000 	1.000000000 	0.000000000 	1.000000000 	0.000000000 
5.922011000 	1.000000000 	0.000000000 	1.469307000 	-1.452752000 	1.000000000 	0.000000000 	1.000000000 	0.000000000 
5.922012000 	1.000000000 	0.000000000 	1.467683000 	-1.455926000 	1.000000000 	0.000000000 	1.000000000 	0.000000000 
5.922013000 	1.000000000 	0.000000000 	1.468603000 	-1.453500000 	1.000000000 	0.000000000 	1.000000000 	0.000000000 
5.922014000 	1.000000000 	0.000000000 	1.467999000 	-1.453876000 	1.000000000 	0.000000000 	1.000000000 	0.000000000 
5.922015000 	1.000000000 	0.000000000 	1.465831000 	-1.454147000 	1.000000000 	0.000000000 	1.000000000 	0.000000000 
5.922016000 	1.000000000 	0.000000000 	1.466699000 	-1.453871000 	1.000000000 	0.000000000 	1.000000000 	0.000000000 
5.922017000 	1.000000000 	0.000000000 	1.466405000 	-1.457617000 	1.000000000 	0.000000000 	1.000000000 	0.000000000 
5.922018000 	1.000000000 	0.000000000 	1.466321000 	-1.456057000 	1.000000000 	0.000000000 	1.000000000 	0.000000000 
5.922019000 	1.000000000 	0.000000000 	1.468321000 	-1.456916000 	1.000000000 	0.000000000 	1.000000000 	0.000000000 
5.922020000 	1.000000000 	0.000000000 	1.466853000 	-1.457047000 	1.000000000 	0.000000000 	1.000000000 	0.000000000 
5.922021000 	1.000000000 	0.000000000 	1.465320000 	-1.456727000 	1.000000000 	0.000000000 	1.000000000 	0.000000000 
5.922022000 	1.000000000 	0.000000000 	1.465526000 	-1.459001000 	1.000000000 	0.000000000 	1.000000000 	0.000000000 
5.922023000 	1.000000000 	0.000000000 	1.463471000 	-1.457434000 	1.000000000 	0.000000000 	1.000000000 	0.000000000 
5.922024000 	1.000000000 	0.000000000 	1.463912000 	-1.458191000 	1.000000000 	0.000000000 	1.000000000 	0.000000000 
5.922025000 	1.000000000 	0.000000000 	1.462654000 	-1.458483000 	1.000000000 	0.000000000 	1.000000000 	0.000000000 
5.922026000 	1.000000000 	0.000000000 	1.462187000 	-1.458336000 	1.000000000 	0.000000000 	1.000000000 	0.000000000 
5.922027000 	1.000000000 	0.000000000 	1.460951000 	-1.459247000 	1.000000000 	0.000000000 	1.000000000 	0.000000000 
5.922028000 	1.000000000 	0.000000000 	1.464694000 	-1.459141000 	1.000000000 	0.000000000 	1.000000000 	0.000000000 
5.922029000 	1.000000000 	0.000000000 	1.462702000 	-1.459541000 	1.000000000 	0.000000000 	1.000000000 	0.000000000 
5.922030000 	1.000000000 	0.000000000 	1.461366000 	-1.459770000 	1.000000000 	0.000000000 	1.000000000 	0.000000000 
5.922031000 	1.000000000 	0.000000000 	1.463045000 	-1.461001000 	1.000000000 	0.000000000 	1.000000000 	0.000000000 
5.922032000 	1.000000000 	0.000000000 	1.459552000 	-1.460134000 	1.000000000 	0.000000000 	1.000000000 	0.000000000 
5.922033000 	1.000000000 	0.000000000 	1.459003000 	-1.463307000 	1.000000000 	0.000000000 	1.000000000 	0.000000000 
5.922034000 	1.000000000 	0.000000000 	1.459859000 	-1.463220000 	1.000000000 	0.000000000 	1.000000000 	0.000000000 
5.922035000 	1.000000000 	0.000000000 	1.460418000 	-1.464988000 	1.000000000 	0.000000000 	1.000000000 	0.000000000 
5.922036000 	1.000000000 	0.000000000 	1.456425000 	-1.464090000 	1.000000000 	0.000000000 	1.000000000 	0.000000000 
5.922037000 	1.000000000 	0.000000000 	1.458349000 	-1.465466000 	1.000000000 	0.000000000 	1.000000000 	0.000000000 
5.922038000 	1.000000000 	0.000000000 	1.460531000 	-1.465203000 	1.000000000 	0.000000000 	1.000000000 	0.000000000 
5.922039000 	1.000000000 	0.000000000 	1.460022000 	-1.465989000 	1.000000000 	0.000000000 	1.000000000 	0.000000000 
5.922040000 	1.000000000 	0.000000000 	1.455971000 	-1.466086000 	1.000000000 	0.000000000 	1.000000000 	0.000000000 
5.922041000 	1.000000000 	0.000000000 	1.456151000 	-1.466491000 	1.000000000 	0.000000000 	1.000000000 	0.000000000 
5.922042000 	1.000000000 	0.000000000 	1.458399000 	-1.465029000 	1.000000000 	0.000000000 	1.000000000 	0.000000000 
5.922043000 	1.000000000 	0.000000000 	1.456824000 	-1.467174000 	1.000000000 	0.000000000 	1.000000000 	0.000000000 
5.922044000 	1.000000000 	0.000000000 	1.457506000 	-1.465631000 	1.000000000 	0.000000000 	1.000000000 	0.000000000 
5.922045000 	1.000000000 	0.000000000 	1.455088000 	-1.467599000 	1.000000000 	0.000000000 	1.000000000 	0.000000000 
5.922046000 	1.000000000 	0.000000000 	1.454000000 	-1.467296000 	1.000000000 	0.000000000 	1.000000000 	0.000000000 
5.922047000 	1.000000000 	0.000000000 	1.456012000 	-1.469303000 	1.000000000 	0.000000000 	1.000000000 	0.000000000 
5.922048000 	1.000000000 	0.000000000 	1.453041000 	-1.471742000 	1.000000000 	0.000000000 	1.000000000 	0.000000000 
5.922049000 	1.000000000 	0.000000000 	1.453582000 	-1.468252000 	1.000000000 	0.000000000 	1.000000000 	0.000000000 
5.922050000 	1.000000000 	0.000000000 	1.454316000 	-1.470550000 	1.000000000 	0.000000000 	1.000000000 	0.000000000 
5.922051000 	1.000000000 	0.000000000 	1.453839000 	-1.471331000 	1.000000000 	0.000000000 	1.000000000 	0.000000000 
5.922052000 	1.000000000 	0.000000000 	1.452466000 	-1.468465000 	1.000000000 	0.000000000 	1.000000000 	0.000000000 
5.922053000 	1.000000000 	0.000000000 	1.450873000 	-1.469280000 	1.000000000 	0.000000000 	1.000000000 	0.000000000 
5.922054000 	1.000000000 	0.000000000 	1.451138000 	-1.474127000 	1.000000000 	0.000000000 	1.000000000 	0.000000000 
5.922055000 	1.000000000 	0.000000000 	1.451168000 	-1.473917000 	1.000000000 	0.000000000 	1.000000000 	0.000000000 
5.922056000 	1.000000000 	0.000000000 	1.451078000 	-1.471483000 	1.000000000 	0.000000000 	1.000000000 	0.000000000 
5.922057000 	1.000000000 	0.000000000 	1.451038000 	-1.475207000 	1.000000000 	0.000000000 	1.000000000 	0.000000000 
5.922058000 	1.000000000 	0.000000000 	1.448946000 	-1.473325000 	1.000000000 	0.000000000 	1.000000000 	0.000000000 
5.922059000 	1.000000000 	0.000000000 	1.448873000 	-1.470903000 	1.000000000 	0.000000000 	1.000000000 	0.000000000 
5.922060000 	1.000000000 	0.000000000 	1.448060000 	-1.474918000 	1.000000000 	0.000000000 	1.000000000 	0.000000000 
5.922061000 	1.000000000 	0.000000000 	1.444937000 	-1.472059000 	1.000000000 	0.000000000 	1.000000000 	0.000000000 
5.922062000 	1.000000000 	0.000000000 	1.445833000 	-1.474704000 	1.000000000 	0.000000000 	1.000000000 	0.000000000 
5.922063000 	1.000000000 	0.000000000 	1.446990000 	-1.473390000 	1.000000000 	0.000000000 	1.000000000 	0.000000000 
5.922064000 	1.000000000 	0.000000000 	1.445446000 	-1.476143000 	1.000000000 	0.000000000 	1.000000000 	0.000000000 
5.922065000 	1.000000000 	0.000000000 	1.447100000 	-1.475714000 	1.000000000 	0.000000000 	1.000000000 	0.000000000 
5.922066000 	1.000000000 	0.000000000 	1.444047000 	-1.476105000 	1.000000000 	0.000000000 	1.000000000 	0.000000000 
5.922067000 	1.000000000 	0.000000000 	1.447455000 	-1.474813000 	1.000000000 	0.000000000 	1.000000000 	0.000000000 
5.922068000 	1.000000000 	0.000000000 	1.443917000 	-1.477992000 	1.000000000 	0.000000000 	1.000000000 	0.000000000 
5.922069000 	1.000000000 	0.000000000 	1.445513000 	-1.478783000 	1.000000000 	0.000000000 	1.000000000 	0.000000000 
5.922070000 	1.000000000 	0.000000000 	1.444448000 	-1.477307000 	1.000000000 	0.000000000 	1.000000000 	0.000000000 
5.922071000 	1.000000000 	0.000000000 	1.444906000 	-1.478772000 	1.000000000 	0.000000000 	1.000000000 	0.000000000 
5.922072000 	1.000000000 	0.000000000 	1.442451000 	-1.476316000 	1.000000000 	0.000000000 	1.000000000 	0.000000000 
5.922073000 	1.000000000 	0.000000000 	1.444020000 	-1.479721000 	1.000000000 	0.000000000 	1.000000000 	0.000000000 
5.922074000 	1.000000000 	0.000000000 	1.443180000 	-1.477823000 	1.000000000 	0.000000000 	1.000000000 	0.000000000 
5.922075000 	1.000000000 	0.000000000 	1.442556000 	-1.479551000 	1.000000000 	0.000000000 	1.000000000 	0.000000000 
5.922076000 	1.000000000 	0.000000000 	1.441913000 	-1.482060000 	1.000000000 	0.000000000 	1.000000000 	0.000000000 
5.922077000 	1.000000000 	0.000000000 	1.439794000 	-1.482187000 	1.000000000 	0.000000000 	1.000000000 	0.000000000 
5.922078000 	1.000000000 	0.000000000 	1.438422000 	-1.479266000 	1.000000000 	0.000000000 	1.000000000 	0.000000000 
5.922079000 	1.000000000 	0.000000000 	1.442863000 	-1.480701000 	1.000000000 	0.000000000 	1.000000000 	0.000000000 
5.922080000 	1.000000000 	0.000000000 	1.438251000 	-1.482783000 	1.000000000 	0.000000000 	1.000000000 	0.000000000 
5.922081000 	1.000000000 	0.000000000 	1.440293000 	-1.484373000 	1.000000000 	0.000000000 	1.000000000 	0.000000000 
5.922082000 	1.000000000 	0.000000000 	1.436938000 	-1.482717000 	1.000000000 	0.000000000 	1.000000000 	0.000000000 
5.922083000 	1.000000000 	0.000000000 	1.438302000 	-1.483660000 	1.000000000 	0.000000000 	1.000000000 	0.000000000 
5.922084000 	1.000000000 	0.000000000 	1.437927000 	-1.484741000 	1.000000000 	0.000000000 	1.000000000 	0.000000000 
5.922085000 	1.000000000 	0.000000000 	1.436753000 	-1.486032000 	1.000000000 	0.000000000 	1.000000000 	0.000000000 
5.922086000 	1.000000000 	0.000000000 	1.437092000 	-1.483604000 	1.000000000 	0.000000000 	1.000000000 	0.000000000 
5.922087000 	1.000000000 	0.000000000 	1.436155000 	-1.483523000 	1.000000000 	0.000000000 	1.000000000 	0.000000000 
5.922088000 	1.000000000 	0.000000000 	1.436040000 	-1.486872000 	1.000000000 	0.000000000 	1.000000000 	0.000000000 
5.922089000 	1.000000000 	0.000000000 	1.434738000 	-1.486502000 	1.000000000 	0.000000000 	1.000000000 	0.000000000 
5.922090000 	1.000000000 	0.000000000 	1.435541000 	-1.486216000 	1.000000000 	0.000000000 	1.000000000 	0.000000000 
5.922091000 	1.000000000 	0.000000000 	1.436212000 	-1.487323000 	1.000000000 	0.000000000 	1.000000000 	0.000000000 
5.922092000 	1.000000000 	0.000000000 	1.436062000 	-1.487033000 	1.000000000 	0.000000000 	1.000000000 	0.000000000 
5.922093000 	1.000000000 	0.000000000 	1.434276000 	-1.487920000 	1.000000000 	0.000000000 	1.000000000 	0.000000000 
5.922094000 	1.000000000 	0.000000000 	1.432104000 	-1.487832000 	1.000000000 	0.000000000 	1.000000000 	0.000000000 
5.922095000 	1.000000000 	0.000000000 	1.434970000 	-1.489496000 	1.000000000 	0.000000000 	1.000000000 	0.000000000 
5.922096000 	1.000000000 	0.000000000 	1.433680000 	-1.487758000 	1.000000000 	0.000000000 	1.000000000 	0.000000000 
5.922097000 	1.000000000 	0.000000000 	1.433085000 	-1.489301000 	1.000000000 	0.000000000 	1.000000000 	0.000000000 
5.922098000 	1.000000000 	0.000000000 	1.429559000 	-1.490345000 	1.000000000 	0.000000000 	1.000000000 	0.000000000 
5.922099000 	1.000000000 	0.000000000 	1.431894000 	-1.492020000 	1.000000000 	0.000000000 	1.000000000 	0.000000000 
5.922100000 	1.000000000 	0.000000000 	1.430868000 	-1.488930000 	1.000000000 	0.000000000 	1.000000000 	0.000000000 
5.922101000 	1.000000000 	0.000000000 	1.430859000 	-1.492432000 	1.000000000 	0.000000000 	1.000000000 	0.000000000 
5.922102000 	1.000000000 	0.000000000 	1.429466000 	-1.492026000 	1.000000000 	0.000000000 	1.000000000 	0.000000000 
5.922103000 	1.000000000 	0.000000000 	1.428180000 	-1.491586000 	1.000000000 	0.000000000 	1.000000000 	0.000000000 
5.922104000 	1.000000000 	0.000000000 	1.428463000 	-1.491949000 	1.000000000 	0.000000000 	1.000000000 	0.000000000 
5.922105000 	1.000000000 	0.000000000 	1.428580000 	-1.494127000 	1.000000000 	0.000000000 	1.000000000 	0.000000000 
5.922106000 	1.000000000 	0.000000000 	1.426389000 	-1.493004000 	1.000000000 	0.000000000 	1.000000000 	0.000000000 
5.922107000 	1.000000000 	0.000000000 	1.426631000 	-1.493996000 	1.000000000 	0.000000000 	1.000000000 	0.000000000 
5.922108000 	1.000000000 	0.000000000 	1.427041000 	-1.494801000 	1.000000000 	0.000000000 	1.000000000 	0.000000000 
5.922109000 	1.000000000 	0.000000000 	1.426249000 	-1.494234000 	1.000000000 	0.000000000 	1.000000000 	0.000000000 
5.922110000 	1.000000000 	0.000000000 	1.426885000 	-1.493944000 	1.000000000 	0.000000000 	1.000000000 	0.000000000 
5.922111000 	1.000000000 	0.000000000 	1.424573000 	-1.493693000 	1.000000000 	0.000000000 	1.000000000 	0.000000000 
5.922112000 	1.000000000 	0.000000000 	1.426736000 	-1.493747000 	1.000000000 	0.000000000 	1.000000000 	0.000000000 
5.922113000 	1.000000000 	0.000000000 	1.423817000 	-1.495089000 	1.000000000 	0.000000000 	1.000000000 	0.000000000 
5.922114000 	1.000000000 	0.000000000 	1.424158000 	-1.499346000 	1.000000000 	0.000000000 	1.000000000 	0.000000000 
5.922115000 	1.000000000 	0.000000000 	1.424921000 	-1.496453000 	1.000000000 	0.000000000 	1.000000000 	0.000000000 
5.922116000 	1.000000000 	0.000000000 	1.424909000 	-1.498372000 	1.000000000 	0.000000000 	1.000000000 	0.000000000 
5.922117000 	1.000000000 	0.000000000 	1.421963000 	-1.499178000 	1.000000000 	0.000000000 	1.000000000 	0.000000000 
5.922118000 	1.000000000 	0.000000000 	1.422431000 	-1.498229000 	1.000000000 	0.000000000 	1.000000000 	0.000000000 
5.922119000 	1.000000000 	0.000000000 	1.419951000 	-1.497500000 	1.000000000 	0.000000000 	1.000000000 	0.000000000 
5.922120000 	1.000000000 	0.000000000 	1.420730000 	-1.497629000 	1.000000000 	0.000000000 	1.000000000 	0.000000000 
5.922121000 	1.000000000 	0.000000000 	1.419773000 	-1.499074000 	1.000000000 	0.000000000 	1.000000000 	0.000000000 
5.922122000 	1.000000000 	0.000000000 	1.420844000 	-1.498824000 	1.000000000 	0.000000000 	1.000000000 	0.000000000 
5.922123000 	1.000000000 	0.000000000 	1.421459000 	-1.499285000 	1.000000000 	0.000000000 	1.000000000 	0.000000000 
5.922124000 	1.000000000 	0.000000000 	1.419304000 	-1.500266000 	1.000000000 	0.000000000 	1.000000000 	0.000000000 
5.922125000 	1.000000000 	0.000000000 	1.418797000 	-1.503600000 	1.000000000 	0.000000000 	1.000000000 	0.000000000 
5.922126000 	1.000000000 	0.000000000 	1.420229000 	-1.501647000 	1.000000000 	0.000000000 	1.000000000 	0.000000000 
5.922127000 	1.000000000 	0.000000000 	1.418288000 	-1.502221000 	1.000000000 	0.000000000 	1.000000000 	0.000000000 
5.922128000 	1.000000000 	0.000000000 	1.418627000 	-1.503087000 	1.000000000 	0.000000000 	1.000000000 	0.000000000 
5.922129000 	1.000000000 	0.000000000 	1.416578000 	-1.504027000 	1.000000000 	0.000000000 	1.000000000 	0.000000000 
5.922130000 	1.000000000 	0.000000000 	1.416978000 	-1.503139000 	1.000000000 	0.000000000 	1.000000000 	0.000000000 
5.922131000 	1.000000000 	0.000000000 	1.416415000 	-1.505633000 	1.000000000 	0.000000000 	1.000000000 	0.000000000 
5.922132000 	1.000000000 	0.000000000 	1.416316000 	-1.504658000 	1.000000000 	0.000000000 	1.000000000 	0.000000000 
5.922133000 	1.000000000 	0.000000000 	1.416946000 	-1.504175000 	1.000000000 	0.000000000 	1.000000000 	0.000000000 
5.922134000 	1.000000000 	0.000000000 	1.413901000 	-1.506018000 	1.000000000 	0.000000000 	1.000000000 	0.000000000 
5.922135000 	1.000000000 	0.000000000 	1.415467000 	-1.505439000 	1.000000000 	0.000000000 	1.000000000 	0.000000000 
5.922136000 	1.000000000 	0.000000000 	1.413891000 	-1.505559000 	1.000000000 	0.000000000 	1.000000000 	0.000000000 
5.922137000 	1.000000000 	0.000000000 	1.415146000 	-1.505139000 	1.000000000 	0.000000000 	1.000000000 	0.000000000 
5.922138000 	1.000000000 	0.000000000 	1.415195000 	-1.506305000 	1.000000000 	0.000000000 	1.000000000 	0.000000000 
5.922139000 	1.000000000 	0.000000000 	1.413192000 	-1.507293000 	1.000000000 	0.000000000 	1.000000000 	0.000000000 
5.922140000 	1.000000000 	0.000000000 	1.411193000 	-1.508439000 	1.000000000 	0.000000000 	1.000000000 	0.000000000 
5.922141000 	1.000000000 	0.000000000 	1.408472000 	-1.509058000 	1.000000000 	0.000000000 	1.000000000 	0.000000000 
5.922142000 	1.000000000 	0.000000000 	1.411081000 	-1.509217000 	1.000000000 	0.000000000 	1.000000000 	0.000000000 
5.922143000 	1.000000000 	0.000000000 	1.409483000 	-1.510674000 	1.000000000 	0.000000000 	1.000000000 	0.000000000 
5.922144000 	1.000000000 	0.000000000 	1.409705000 	-1.509123000 	1.000000000 	0.000000000 	1.000000000 	0.000000000 
5.922145000 	1.000000000 	0.000000000 	1.408263000 	-1.509711000 	1.000000000 	0.000000000 	1.000000000 	0.000000000 
5.922146000 	1.000000000 	0.000000000 	1.410249000 	-1.507528000 	1.000000000 	0.000000000 	1.000000000 	0.000000000 
5.922147000 	1.000000000 	0.000000000 	1.409738000 	-1.509920000 	1.000000000 	0.000000000 	1.000000000 	0.000000000 
5.922148000 	1.000000000 	0.000000000 	1.406915000 	-1.512420000 	1.000000000 	0.000000000 	1.000000000 	0.000000000 
5.922149000 	1.000000000 	0.000000000 	1.406856000 	-1.510673000 	1.000000000 	0.000000000 	1.000000000 	0.000000000 
5.922150000 	1.000000000 	0.000000000 	1.406485000 	-1.511752000 	1.000000000 	0.000000000 	1.000000000 	0.000000000 
5.922151000 	1.000000000 	0.000000000 	1.407327000 	-1.515284000 	1.000000000 	0.000000000 	1.000000000 	0.000000000 
5.922152000 	1.000000000 	0.000000000 	1.405306000 	-1.510853000 	1.000000000 	0.000000000 	1.000000000 	0.000000000 
5.922153000 	1.000000000 	0.000000000 	1.406063000 	-1.513191000 	1.000000000 	0.000000000 	1.000000000 	0.000000000 
5.922154000 	1.000000000 	0.000000000 	1.405677000 	-1.515460000 	1.000000000 	0.000000000 	1.000000000 	0.000000000 
5.922155000 	1.000000000 	0.000000000 	1.403955000 	-1.515069000 	1.000000000 	0.000000000 	1.000000000 	0.000000000 
5.922156000 	1.000000000 	0.000000000 	1.403432000 	-1.515403000 	1.000000000 	0.000000000 	1.000000000 	0.000000000 
5.922157000 	1.000000000 	0.000000000 	1.402767000 	-1.512640000 	1.000000000 	0.000000000 	1.000000000 	0.000000000 
5.922158000 	1.000000000 	0.000000000 	1.403340000 	-1.515890000 	1.000000000 	0.000000000 	1.000000000 	0.000000000 
5.922159000 	1.000000000 	0.000000000 	1.403962000 	-1.517311000 	1.000000000 	0.000000000 	1.000000000 	0.000000000 
5.922160000 	1.000000000 	0.000000000 	1.401753000 	-1.517522000 	1.000000000 	0.000000000 	1.000000000 	0.000000000 
5.922161000 	1.000000000 	0.000000000 	1.401473000 	-1.516725000 	1.000000000 	0.000000000 	1.000000000 	0.000000000 
5.922162000 	1.000000000 	0.000000000 	1.402238000 	-1.515492000 	1.000000000 	0.000000000 	1.000000000 	0.000000000 
5.922163000 	1.000000000 	0.000000000 	1.401646000 	-1.516659000 	1.000000000 	0.000000000 	1.000000000 	0.000000000 
5.922164000 	1.000000000 	0.000000000 	1.401984000 	-1.517401000 	1.000000000 	0.000000000 	1.000000000 	0.000000000 
5.922165000 	1.000000000 	0.000000000 	1.400477000 	-1.516815000 	1.000000000 	0.000000000 	1.000000000 	0.000000000 
5.922166000 	1.000000000 	0.000000000 	1.397823000 	-1.518393000 	1.000000000 	0.000000000 	1.000000000 	0.000000000 
