! FREQ.GHZ	S11RE	S11IM	S21RE	S21IM	S12RE	S12IM	S22RE	S22IM
6.5794	1.000000000 	0.000000000 	1.473788000 	-1.447411000 	1.000000000 	0.000000000 	1.000000000 	0.000000000 
6.579401083	1.000000000 	0.000000000 	1.470802000 	-1.448592000 	1.000000000 	0.000000000 	1.000000000 	0.000000000 
6.579402167	1.000000000 	0.000000000 	1.471665000 	-1.452746000 	1.000000000 	0.000000000 	1.000000000 	0.000000000 
6.57940325	1.000000000 	0.000000000 	1.471807000 	-1.451364000 	1.000000000 	0.000000000 	1.000000000 	0.000000000 
6.579404333	1.000000000 	0.000000000 	1.475433000 	-1.448595000 	1.000000000 	0.000000000 	1.000000000 	0.000000000 
6.579405417	1.000000000 	0.000000000 	1.470972000 	-1.452137000 	1.000000000 	0.000000000 	1.000000000 	0.000000000 
6.5794065	1.000000000 	0.000000000 	1.474937000 	-1.451556000 	1.000000000 	0.000000000 	1.000000000 	0.000000000 
6.579407583	1.000000000 	0.000000000 	1.471390000 	-1.451721000 	1.000000000 	0.000000000 	1.000000000 	0.000000000 
6.579408667	1.000000000 	0.000000000 	1.472103000 	-1.451352000 	1.000000000 	0.000000000 	1.000000000 	0.000000000 
6.57940975	1.000000000 	0.000000000 	1.471118000 	-1.449963000 	1.000000000 	0.000000000 	1.000000000 	0.000000000 
6.579410833	1.000000000 	0.000000000 	1.469866000 	-1.451448000 	1.000000000 	0.000000000 	1.000000000 	0.000000000 
6.579411917	1.000000000 	0.000000000 	1.469307000 	-1.452752000 	1.000000000 	0.000000000 	1.000000000 	0.000000000 
6.579413	1.000000000 	0.000000000 	1.467683000 	-1.455926000 	1.000000000 	0.000000000 	1.000000000 	0.000000000 
6.579414083	1.000000000 	0.000000000 	1.468603000 	-1.453500000 	1.000000000 	0.000000000 	1.000000000 	0.000000000 
6.579415167	1.000000000 	0.000000000 	1.467999000 	-1.453876000 	1.000000000 	0.000000000 	1.000000000 	0.000000000 
6.57941625	1.000000000 	0.000000000 	1.465831000 	-1.454147000 	1.000000000 	0.000000000 	1.000000000 	0.000000000 
6.579417333	1.000000000 	0.000000000 	1.466699000 	-1.453871000 	1.000000000 	0.000000000 	1.000000000 	0.000000000 
6.579418417	1.000000000 	0.000000000 	1.466405000 	-1.457617000 	1.000000000 	0.000000000 	1.000000000 	0.000000000 
6.5794195	1.000000000 	0.000000000 	1.466321000 	-1.456057000 	1.000000000 	0.000000000 	1.000000000 	0.000000000 
6.579420583	1.000000000 	0.000000000 	1.468321000 	-1.456916000 	1.000000000 	0.000000000 	1.000000000 	0.000000000 
6.579421667	1.000000000 	0.000000000 	1.466853000 	-1.457047000 	1.000000000 	0.000000000 	1.000000000 	0.000000000 
6.57942275	1.000000000 	0.000000000 	1.465320000 	-1.456727000 	1.000000000 	0.000000000 	1.000000000 	0.000000000 
6.579423833	1.000000000 	0.000000000 	1.465526000 	-1.459001000 	1.000000000 	0.000000000 	1.000000000 	0.000000000 
6.579424917	1.000000000 	0.000000000 	1.463471000 	-1.457434000 	1.000000000 	0.000000000 	1.000000000 	0.000000000 
6.579426	1.000000000 	0.000000000 	1.463912000 	-1.458191000 	1.000000000 	0.000000000 	1.000000000 	0.000000000 
6.579427083	1.000000000 	0.000000000 	1.462654000 	-1.458483000 	1.000000000 	0.000000000 	1.000000000 	0.000000000 
6.579428167	1.000000000 	0.000000000 	1.462187000 	-1.458336000 	1.000000000 	0.000000000 	1.000000000 	0.000000000 
6.57942925	1.000000000 	0.000000000 	1.460951000 	-1.459247000 	1.000000000 	0.000000000 	1.000000000 	0.000000000 
6.579430333	1.000000000 	0.000000000 	1.464694000 	-1.459141000 	1.000000000 	0.000000000 	1.000000000 	0.000000000 
6.579431417	1.000000000 	0.000000000 	1.462702000 	-1.459541000 	1.000000000 	0.000000000 	1.000000000 	0.000000000 
6.5794325	1.000000000 	0.000000000 	1.461366000 	-1.459770000 	1.000000000 	0.000000000 	1.000000000 	0.000000000 
6.579433583	1.000000000 	0.000000000 	1.463045000 	-1.461001000 	1.000000000 	0.000000000 	1.000000000 	0.000000000 
6.579434667	1.000000000 	0.000000000 	1.459552000 	-1.460134000 	1.000000000 	0.000000000 	1.000000000 	0.000000000 
6.57943575	1.000000000 	0.000000000 	1.459003000 	-1.463307000 	1.000000000 	0.000000000 	1.000000000 	0.000000000 
6.579436833	1.000000000 	0.000000000 	1.459859000 	-1.463220000 	1.000000000 	0.000000000 	1.000000000 	0.000000000 
6.579437917	1.000000000 	0.000000000 	1.460418000 	-1.464988000 	1.000000000 	0.000000000 	1.000000000 	0.000000000 
6.579439	1.000000000 	0.000000000 	1.456425000 	-1.464090000 	1.000000000 	0.000000000 	1.000000000 	0.000000000 
6.579440083	1.000000000 	0.000000000 	1.458349000 	-1.465466000 	1.000000000 	0.000000000 	1.000000000 	0.000000000 
6.579441167	1.000000000 	0.000000000 	1.460531000 	-1.465203000 	1.000000000 	0.000000000 	1.000000000 	0.000000000 
6.57944225	1.000000000 	0.000000000 	1.460022000 	-1.465989000 	1.000000000 	0.000000000 	1.000000000 	0.000000000 
6.579443333	1.000000000 	0.000000000 	1.455971000 	-1.466086000 	1.000000000 	0.000000000 	1.000000000 	0.000000000 
6.579444417	1.000000000 	0.000000000 	1.456151000 	-1.466491000 	1.000000000 	0.000000000 	1.000000000 	0.000000000 
6.5794455	1.000000000 	0.000000000 	1.458399000 	-1.465029000 	1.000000000 	0.000000000 	1.000000000 	0.000000000 
6.579446583	1.000000000 	0.000000000 	1.456824000 	-1.467174000 	1.000000000 	0.000000000 	1.000000000 	0.000000000 
6.579447667	1.000000000 	0.000000000 	1.457506000 	-1.465631000 	1.000000000 	0.000000000 	1.000000000 	0.000000000 
6.57944875	1.000000000 	0.000000000 	1.455088000 	-1.467599000 	1.000000000 	0.000000000 	1.000000000 	0.000000000 
6.579449833	1.000000000 	0.000000000 	1.454000000 	-1.467296000 	1.000000000 	0.000000000 	1.000000000 	0.000000000 
6.579450917	1.000000000 	0.000000000 	1.456012000 	-1.469303000 	1.000000000 	0.000000000 	1.000000000 	0.000000000 
6.579452	1.000000000 	0.000000000 	1.453041000 	-1.471742000 	1.000000000 	0.000000000 	1.000000000 	0.000000000 
6.579453083	1.000000000 	0.000000000 	1.453582000 	-1.468252000 	1.000000000 	0.000000000 	1.000000000 	0.000000000 
6.579454167	1.000000000 	0.000000000 	1.454316000 	-1.470550000 	1.000000000 	0.000000000 	1.000000000 	0.000000000 
6.57945525	1.000000000 	0.000000000 	1.453839000 	-1.471331000 	1.000000000 	0.000000000 	1.000000000 	0.000000000 
6.579456333	1.000000000 	0.000000000 	1.452466000 	-1.468465000 	1.000000000 	0.000000000 	1.000000000 	0.000000000 
6.579457417	1.000000000 	0.000000000 	1.450873000 	-1.469280000 	1.000000000 	0.000000000 	1.000000000 	0.000000000 
6.5794585	1.000000000 	0.000000000 	1.451138000 	-1.474127000 	1.000000000 	0.000000000 	1.000000000 	0.000000000 
6.579459583	1.000000000 	0.000000000 	1.451168000 	-1.473917000 	1.000000000 	0.000000000 	1.000000000 	0.000000000 
6.579460667	1.000000000 	0.000000000 	1.451078000 	-1.471483000 	1.000000000 	0.000000000 	1.000000000 	0.000000000 
6.57946175	1.000000000 	0.000000000 	1.451038000 	-1.475207000 	1.000000000 	0.000000000 	1.000000000 	0.000000000 
6.579462833	1.000000000 	0.000000000 	1.448946000 	-1.473325000 	1.000000000 	0.000000000 	1.000000000 	0.000000000 
6.579463917	1.000000000 	0.000000000 	1.448873000 	-1.470903000 	1.000000000 	0.000000000 	1.000000000 	0.000000000 
6.579465	1.000000000 	0.000000000 	1.448060000 	-1.474918000 	1.000000000 	0.000000000 	1.000000000 	0.000000000 
6.579466083	1.000000000 	0.000000000 	1.444937000 	-1.472059000 	1.000000000 	0.000000000 	1.000000000 	0.000000000 
6.579467167	1.000000000 	0.000000000 	1.445833000 	-1.474704000 	1.000000000 	0.000000000 	1.000000000 	0.000000000 
6.57946825	1.000000000 	0.000000000 	1.446990000 	-1.473390000 	1.000000000 	0.000000000 	1.000000000 	0.000000000 
6.579469333	1.000000000 	0.000000000 	1.445446000 	-1.476143000 	1.000000000 	0.000000000 	1.000000000 	0.000000000 
6.579470417	1.000000000 	0.000000000 	1.447100000 	-1.475714000 	1.000000000 	0.000000000 	1.000000000 	0.000000000 
6.5794715	1.000000000 	0.000000000 	1.444047000 	-1.476105000 	1.000000000 	0.000000000 	1.000000000 	0.000000000 
6.579472583	1.000000000 	0.000000000 	1.447455000 	-1.474813000 	1.000000000 	0.000000000 	1.000000000 	0.000000000 
6.579473667	1.000000000 	0.000000000 	1.443917000 	-1.477992000 	1.000000000 	0.000000000 	1.000000000 	0.000000000 
6.57947475	1.000000000 	0.000000000 	1.445513000 	-1.478783000 	1.000000000 	0.000000000 	1.000000000 	0.000000000 
6.579475833	1.000000000 	0.000000000 	1.444448000 	-1.477307000 	1.000000000 	0.000000000 	1.000000000 	0.000000000 
6.579476917	1.000000000 	0.000000000 	1.444906000 	-1.478772000 	1.000000000 	0.000000000 	1.000000000 	0.000000000 
6.579478	1.000000000 	0.000000000 	1.442451000 	-1.476316000 	1.000000000 	0.000000000 	1.000000000 	0.000000000 
6.579479083	1.000000000 	0.000000000 	1.444020000 	-1.479721000 	1.000000000 	0.000000000 	1.000000000 	0.000000000 
6.579480167	1.000000000 	0.000000000 	1.443180000 	-1.477823000 	1.000000000 	0.000000000 	1.000000000 	0.000000000 
6.57948125	1.000000000 	0.000000000 	1.442556000 	-1.479551000 	1.000000000 	0.000000000 	1.000000000 	0.000000000 
6.579482333	1.000000000 	0.000000000 	1.441913000 	-1.482060000 	1.000000000 	0.000000000 	1.000000000 	0.000000000 
6.579483417	1.000000000 	0.000000000 	1.439794000 	-1.482187000 	1.000000000 	0.000000000 	1.000000000 	0.000000000 
6.5794845	1.000000000 	0.000000000 	1.438422000 	-1.479266000 	1.000000000 	0.000000000 	1.000000000 	0.000000000 
6.579485583	1.000000000 	0.000000000 	1.442863000 	-1.480701000 	1.000000000 	0.000000000 	1.000000000 	0.000000000 
6.579486667	1.000000000 	0.000000000 	1.438251000 	-1.482783000 	1.000000000 	0.000000000 	1.000000000 	0.000000000 
6.57948775	1.000000000 	0.000000000 	1.440293000 	-1.484373000 	1.000000000 	0.000000000 	1.000000000 	0.000000000 
6.579488833	1.000000000 	0.000000000 	1.436938000 	-1.482717000 	1.000000000 	0.000000000 	1.000000000 	0.000000000 
6.579489917	1.000000000 	0.000000000 	1.438302000 	-1.483660000 	1.000000000 	0.000000000 	1.000000000 	0.000000000 
6.579491	1.000000000 	0.000000000 	1.437927000 	-1.484741000 	1.000000000 	0.000000000 	1.000000000 	0.000000000 
6.579492083	1.000000000 	0.000000000 	1.436753000 	-1.486032000 	1.000000000 	0.000000000 	1.000000000 	0.000000000 
6.579493167	1.000000000 	0.000000000 	1.437092000 	-1.483604000 	1.000000000 	0.000000000 	1.000000000 	0.000000000 
6.57949425	1.000000000 	0.000000000 	1.436155000 	-1.483523000 	1.000000000 	0.000000000 	1.000000000 	0.000000000 
6.579495333	1.000000000 	0.000000000 	1.436040000 	-1.486872000 	1.000000000 	0.000000000 	1.000000000 	0.000000000 
6.579496417	1.000000000 	0.000000000 	1.434738000 	-1.486502000 	1.000000000 	0.000000000 	1.000000000 	0.000000000 
6.5794975	1.000000000 	0.000000000 	1.435541000 	-1.486216000 	1.000000000 	0.000000000 	1.000000000 	0.000000000 
6.579498583	1.000000000 	0.000000000 	1.436212000 	-1.487323000 	1.000000000 	0.000000000 	1.000000000 	0.000000000 
6.579499667	1.000000000 	0.000000000 	1.436062000 	-1.487033000 	1.000000000 	0.000000000 	1.000000000 	0.000000000 
6.57950075	1.000000000 	0.000000000 	1.434276000 	-1.487920000 	1.000000000 	0.000000000 	1.000000000 	0.000000000 
6.579501833	1.000000000 	0.000000000 	1.432104000 	-1.487832000 	1.000000000 	0.000000000 	1.000000000 	0.000000000 
6.579502917	1.000000000 	0.000000000 	1.434970000 	-1.489496000 	1.000000000 	0.000000000 	1.000000000 	0.000000000 
6.579504	1.000000000 	0.000000000 	1.433680000 	-1.487758000 	1.000000000 	0.000000000 	1.000000000 	0.000000000 
6.579505083	1.000000000 	0.000000000 	1.433085000 	-1.489301000 	1.000000000 	0.000000000 	1.000000000 	0.000000000 
6.579506167	1.000000000 	0.000000000 	1.429559000 	-1.490345000 	1.000000000 	0.000000000 	1.000000000 	0.000000000 
6.57950725	1.000000000 	0.000000000 	1.431894000 	-1.492020000 	1.000000000 	0.000000000 	1.000000000 	0.000000000 
6.579508333	1.000000000 	0.000000000 	1.430868000 	-1.488930000 	1.000000000 	0.000000000 	1.000000000 	0.000000000 
6.579509417	1.000000000 	0.000000000 	1.430859000 	-1.492432000 	1.000000000 	0.000000000 	1.000000000 	0.000000000 
6.5795105	1.000000000 	0.000000000 	1.429466000 	-1.492026000 	1.000000000 	0.000000000 	1.000000000 	0.000000000 
6.579511583	1.000000000 	0.000000000 	1.428180000 	-1.491586000 	1.000000000 	0.000000000 	1.000000000 	0.000000000 
6.579512667	1.000000000 	0.000000000 	1.428463000 	-1.491949000 	1.000000000 	0.000000000 	1.000000000 	0.000000000 
6.57951375	1.000000000 	0.000000000 	1.428580000 	-1.494127000 	1.000000000 	0.000000000 	1.000000000 	0.000000000 
6.579514833	1.000000000 	0.000000000 	1.426389000 	-1.493004000 	1.000000000 	0.000000000 	1.000000000 	0.000000000 
6.579515917	1.000000000 	0.000000000 	1.426631000 	-1.493996000 	1.000000000 	0.000000000 	1.000000000 	0.000000000 
6.579517	1.000000000 	0.000000000 	1.427041000 	-1.494801000 	1.000000000 	0.000000000 	1.000000000 	0.000000000 
6.579518083	1.000000000 	0.000000000 	1.426249000 	-1.494234000 	1.000000000 	0.000000000 	1.000000000 	0.000000000 
6.579519167	1.000000000 	0.000000000 	1.426885000 	-1.493944000 	1.000000000 	0.000000000 	1.000000000 	0.000000000 
6.57952025	1.000000000 	0.000000000 	1.424573000 	-1.493693000 	1.000000000 	0.000000000 	1.000000000 	0.000000000 
6.579521333	1.000000000 	0.000000000 	1.426736000 	-1.493747000 	1.000000000 	0.000000000 	1.000000000 	0.000000000 
6.579522417	1.000000000 	0.000000000 	1.423817000 	-1.495089000 	1.000000000 	0.000000000 	1.000000000 	0.000000000 
6.5795235	1.000000000 	0.000000000 	1.424158000 	-1.499346000 	1.000000000 	0.000000000 	1.000000000 	0.000000000 
6.579524583	1.000000000 	0.000000000 	1.424921000 	-1.496453000 	1.000000000 	0.000000000 	1.000000000 	0.000000000 
6.579525667	1.000000000 	0.000000000 	1.424909000 	-1.498372000 	1.000000000 	0.000000000 	1.000000000 	0.000000000 
6.57952675	1.000000000 	0.000000000 	1.421963000 	-1.499178000 	1.000000000 	0.000000000 	1.000000000 	0.000000000 
6.579527833	1.000000000 	0.000000000 	1.422431000 	-1.498229000 	1.000000000 	0.000000000 	1.000000000 	0.000000000 
6.579528917	1.000000000 	0.000000000 	1.419951000 	-1.497500000 	1.000000000 	0.000000000 	1.000000000 	0.000000000 
6.57953	1.000000000 	0.000000000 	1.420730000 	-1.497629000 	1.000000000 	0.000000000 	1.000000000 	0.000000000 
6.579531083	1.000000000 	0.000000000 	1.419773000 	-1.499074000 	1.000000000 	0.000000000 	1.000000000 	0.000000000 
6.579532167	1.000000000 	0.000000000 	1.420844000 	-1.498824000 	1.000000000 	0.000000000 	1.000000000 	0.000000000 
6.57953325	1.000000000 	0.000000000 	1.421459000 	-1.499285000 	1.000000000 	0.000000000 	1.000000000 	0.000000000 
6.579534333	1.000000000 	0.000000000 	1.419304000 	-1.500266000 	1.000000000 	0.000000000 	1.000000000 	0.000000000 
6.579535417	1.000000000 	0.000000000 	1.418797000 	-1.503600000 	1.000000000 	0.000000000 	1.000000000 	0.000000000 
6.5795365	1.000000000 	0.000000000 	1.420229000 	-1.501647000 	1.000000000 	0.000000000 	1.000000000 	0.000000000 
6.579537583	1.000000000 	0.000000000 	1.418288000 	-1.502221000 	1.000000000 	0.000000000 	1.000000000 	0.000000000 
6.579538667	1.000000000 	0.000000000 	1.418627000 	-1.503087000 	1.000000000 	0.000000000 	1.000000000 	0.000000000 
6.57953975	1.000000000 	0.000000000 	1.416578000 	-1.504027000 	1.000000000 	0.000000000 	1.000000000 	0.000000000 
6.579540833	1.000000000 	0.000000000 	1.416978000 	-1.503139000 	1.000000000 	0.000000000 	1.000000000 	0.000000000 
6.579541917	1.000000000 	0.000000000 	1.416415000 	-1.505633000 	1.000000000 	0.000000000 	1.000000000 	0.000000000 
6.579543	1.000000000 	0.000000000 	1.416316000 	-1.504658000 	1.000000000 	0.000000000 	1.000000000 	0.000000000 
6.579544083	1.000000000 	0.000000000 	1.416946000 	-1.504175000 	1.000000000 	0.000000000 	1.000000000 	0.000000000 
6.579545167	1.000000000 	0.000000000 	1.413901000 	-1.506018000 	1.000000000 	0.000000000 	1.000000000 	0.000000000 
6.57954625	1.000000000 	0.000000000 	1.415467000 	-1.505439000 	1.000000000 	0.000000000 	1.000000000 	0.000000000 
6.579547333	1.000000000 	0.000000000 	1.413891000 	-1.505559000 	1.000000000 	0.000000000 	1.000000000 	0.000000000 
6.579548417	1.000000000 	0.000000000 	1.415146000 	-1.505139000 	1.000000000 	0.000000000 	1.000000000 	0.000000000 
6.5795495	1.000000000 	0.000000000 	1.415195000 	-1.506305000 	1.000000000 	0.000000000 	1.000000000 	0.000000000 
6.579550583	1.000000000 	0.000000000 	1.413192000 	-1.507293000 	1.000000000 	0.000000000 	1.000000000 	0.000000000 
6.579551667	1.000000000 	0.000000000 	1.411193000 	-1.508439000 	1.000000000 	0.000000000 	1.000000000 	0.000000000 
6.57955275	1.000000000 	0.000000000 	1.408472000 	-1.509058000 	1.000000000 	0.000000000 	1.000000000 	0.000000000 
6.579553833	1.000000000 	0.000000000 	1.411081000 	-1.509217000 	1.000000000 	0.000000000 	1.000000000 	0.000000000 
6.579554917	1.000000000 	0.000000000 	1.409483000 	-1.510674000 	1.000000000 	0.000000000 	1.000000000 	0.000000000 
6.579556	1.000000000 	0.000000000 	1.409705000 	-1.509123000 	1.000000000 	0.000000000 	1.000000000 	0.000000000 
6.579557083	1.000000000 	0.000000000 	1.408263000 	-1.509711000 	1.000000000 	0.000000000 	1.000000000 	0.000000000 
6.579558167	1.000000000 	0.000000000 	1.410249000 	-1.507528000 	1.000000000 	0.000000000 	1.000000000 	0.000000000 
6.57955925	1.000000000 	0.000000000 	1.409738000 	-1.509920000 	1.000000000 	0.000000000 	1.000000000 	0.000000000 
6.579560333	1.000000000 	0.000000000 	1.406915000 	-1.512420000 	1.000000000 	0.000000000 	1.000000000 	0.000000000 
6.579561417	1.000000000 	0.000000000 	1.406856000 	-1.510673000 	1.000000000 	0.000000000 	1.000000000 	0.000000000 
6.5795625	1.000000000 	0.000000000 	1.406485000 	-1.511752000 	1.000000000 	0.000000000 	1.000000000 	0.000000000 
6.579563583	1.000000000 	0.000000000 	1.407327000 	-1.515284000 	1.000000000 	0.000000000 	1.000000000 	0.000000000 
6.579564667	1.000000000 	0.000000000 	1.405306000 	-1.510853000 	1.000000000 	0.000000000 	1.000000000 	0.000000000 
6.57956575	1.000000000 	0.000000000 	1.406063000 	-1.513191000 	1.000000000 	0.000000000 	1.000000000 	0.000000000 
6.579566833	1.000000000 	0.000000000 	1.405677000 	-1.515460000 	1.000000000 	0.000000000 	1.000000000 	0.000000000 
6.579567917	1.000000000 	0.000000000 	1.403955000 	-1.515069000 	1.000000000 	0.000000000 	1.000000000 	0.000000000 
6.579569	1.000000000 	0.000000000 	1.403432000 	-1.515403000 	1.000000000 	0.000000000 	1.000000000 	0.000000000 
6.579570083	1.000000000 	0.000000000 	1.402767000 	-1.512640000 	1.000000000 	0.000000000 	1.000000000 	0.000000000 
6.579571167	1.000000000 	0.000000000 	1.403340000 	-1.515890000 	1.000000000 	0.000000000 	1.000000000 	0.000000000 
6.57957225	1.000000000 	0.000000000 	1.403962000 	-1.517311000 	1.000000000 	0.000000000 	1.000000000 	0.000000000 
6.579573333	1.000000000 	0.000000000 	1.401753000 	-1.517522000 	1.000000000 	0.000000000 	1.000000000 	0.000000000 
6.579574417	1.000000000 	0.000000000 	1.401473000 	-1.516725000 	1.000000000 	0.000000000 	1.000000000 	0.000000000 
6.5795755	1.000000000 	0.000000000 	1.402238000 	-1.515492000 	1.000000000 	0.000000000 	1.000000000 	0.000000000 
6.579576583	1.000000000 	0.000000000 	1.401646000 	-1.516659000 	1.000000000 	0.000000000 	1.000000000 	0.000000000 
6.579577667	1.000000000 	0.000000000 	1.401984000 	-1.517401000 	1.000000000 	0.000000000 	1.000000000 	0.000000000 
6.57957875	1.000000000 	0.000000000 	1.400477000 	-1.516815000 	1.000000000 	0.000000000 	1.000000000 	0.000000000 
6.579579833	1.000000000 	0.000000000 	1.397823000 	-1.518393000 	1.000000000 	0.000000000 	1.000000000 	0.000000000 
6.579580917	1.000000000 	0.000000000 	1.397926000 	-1.520006000 	1.000000000 	0.000000000 	1.000000000 	0.000000000 
6.579582	1.000000000 	0.000000000 	1.399666000 	-1.520100000 	1.000000000 	0.000000000 	1.000000000 	0.000000000 
6.579583083	1.000000000 	0.000000000 	1.397846000 	-1.522718000 	1.000000000 	0.000000000 	1.000000000 	0.000000000 
6.579584167	1.000000000 	0.000000000 	1.397921000 	-1.521073000 	1.000000000 	0.000000000 	1.000000000 	0.000000000 
